![Disclaimer] This software code/ model/ data and all associated documentation, comments
!    or other information (collectively "Software") is provided 
!    "AS IS" without warranty of any kind. MICRON TECHNOLOGY, INC. 
!    ("MTI") EXPRESSLY DISCLAIMS ALL WARRANTIES EXPRESS OR IMPLIED,
!    INCLUDING BUT NOT LIMITED TO, NONINFRINGEMENT OF THIRD PARTY
!    RIGHTS, AND ANY IMPLIED WARRANTIES OF MERCHANTABILITY OR FITNESS
!    FOR ANY PARTICULAR PURPOSE. MTI DOES NOT WARRANT THAT THE
!    SOFTWARE WILL MEET YOUR REQUIREMENTS, OR THAT THE OPERATION OF
!    THE SOFTWARE WILL BE UNINTERRUPTED OR ERROR-FREE. FURTHERMORE,
!    MTI DOES NOT MAKE ANY REPRESENTATIONS REGARDING THE USE OR THE
!    RESULTS OF THE USE OF THE SOFTWARE IN TERMS OF ITS CORRECTNESS,
!    ACCURACY, RELIABILITY, OR OTHERWISE. THE ENTIRE RISK ARISING OUT
!    OF USE OR PERFORMANCE OF THE SOFTWARE REMAINS WITH YOU. IN NO
!    EVENT SHALL MTI, ITS AFFILIATED COMPANIES OR THEIR SUPPLIERS BE
!    LIABLE FOR ANY DIRECT, INDIRECT, CONSEQUENTIAL, INCIDENTAL, OR
!    SPECIAL DAMAGES (INCLUDING, WITHOUT LIMITATION, DAMAGES FOR LOSS
!    OF PROFITS, BUSINESS INTERRUPTION, OR LOSS OF INFORMATION)
!    ARISING OUT OF YOUR USE OF OR INABILITY TO USE THE SOFTWARE,
!    EVEN IF MTI HAS BEEN ADVISED OF THE POSSIBILITY OF SUCH DAMAGES.
!    Because some jurisdictions prohibit the exclusion or limitation
!    of liability for consequential or incidental damages, the above
!    limitation may not apply to you.
!    Copyright 2019 Micron Technology, Inc. All rights reserved.

! Single-ended  S-parameters
!NUMBER OF PORTS = 2
!   PORT#     PORT_NAME  NET_NAME
! PORT1:  DQ4.BGA.VDDQ_VSS DQ4
! PORT2:  DQ4.Z11B_DIE.VDDQ_VSS DQ4

# HZ S  RI R 5.000000e+001
! 
1.000000000000000e+001 1.928214070000000e-003 6.179504550000000e-010 9.980692840000000e-001 -3.050862320000000e-009 9.980692840000000e-001 -3.050862320000000e-009 1.928204500000000e-003 6.159786010000000e-010
1.079780000000000e+001 1.928214070000000e-003 6.672506580000000e-010 9.980692840000000e-001 -3.294259590000000e-009 9.980692840000000e-001 -3.294259590000000e-009 1.928204500000000e-003 6.651211530000000e-010
1.165910000000000e+001 1.928214070000000e-003 7.204746520000000e-010 9.980692840000000e-001 -3.557030200000000e-009 9.980692840000000e-001 -3.557030200000000e-009 1.928204500000000e-003 7.181752970000000e-010
1.258930000000000e+001 1.928214070000000e-003 7.779564350000000e-010 9.980692840000000e-001 -3.840821720000000e-009 9.980692840000000e-001 -3.840821720000000e-009 1.928204500000000e-003 7.754741020000000e-010
1.359360000000000e+001 1.928214070000000e-003 8.400173470000000e-010 9.980692840000000e-001 -4.147219670000000e-009 9.980692840000000e-001 -4.147219670000000e-009 1.928204500000000e-003 8.373364780000000e-010
1.467800000000000e+001 1.928214070000000e-003 9.070279530000000e-010 9.980692840000000e-001 -4.478055300000000e-009 9.980692840000000e-001 -4.478055300000000e-009 1.928204500000000e-003 9.041327690000001e-010
1.584890000000000e+001 1.928214070000000e-003 9.793835739999999e-010 9.980692840000000e-001 -4.835280390000000e-009 9.980692840000000e-001 -4.835280390000000e-009 1.928204500000000e-003 9.762578250000000e-010
1.711330000000000e+001 1.928214070000000e-003 1.057517410000000e-009 9.980692840000000e-001 -5.221031070000000e-009 9.980692840000000e-001 -5.221031070000000e-009 1.928204500000000e-003 1.054142220000000e-009
1.847850000000000e+001 1.928214070000000e-003 1.141880020000000e-009 9.980692840000000e-001 -5.637534970000000e-009 9.980692840000000e-001 -5.637534970000000e-009 1.928204500000000e-003 1.138235120000000e-009
1.995260000000000e+001 1.928214070000000e-003 1.232972140000000e-009 9.980692840000000e-001 -6.087262540000000e-009 9.980692840000000e-001 -6.087262540000000e-009 1.928204500000000e-003 1.229036650000000e-009
2.154430000000000e+001 1.928214070000000e-003 1.331331240000000e-009 9.980692840000000e-001 -6.572868380000000e-009 9.980692840000000e-001 -6.572868380000000e-009 1.928204500000000e-003 1.327081860000000e-009
2.326310000000000e+001 1.928214070000000e-003 1.437544570000000e-009 9.980692840000000e-001 -7.097250150000000e-009 9.980692840000000e-001 -7.097250150000000e-009 1.928204500000000e-003 1.432956390000000e-009
2.511890000000000e+001 1.928214070000000e-003 1.552223670000000e-009 9.980692840000000e-001 -7.663429560000001e-009 9.980692840000000e-001 -7.663429560000001e-009 1.928204500000000e-003 1.547269980000000e-009
2.712270000000000e+001 1.928214070000000e-003 1.676048870000000e-009 9.980692840000000e-001 -8.274760690000000e-009 9.980692840000000e-001 -8.274760690000000e-009 1.928204500000000e-003 1.670699330000000e-009
2.928640000000000e+001 1.928214070000000e-003 1.809754820000000e-009 9.980692840000000e-001 -8.934875890000001e-009 9.980692840000000e-001 -8.934875890000001e-009 1.928204500000000e-003 1.803978880000000e-009
3.162280000000000e+001 1.928214070000000e-003 1.954132770000000e-009 9.980692840000000e-001 -9.647679390000000e-009 9.980692840000000e-001 -9.647679390000000e-009 1.928204500000000e-003 1.947895710000000e-009
3.414550000000000e+001 1.928214070000000e-003 2.110023030000000e-009 9.980692840000000e-001 -1.041732000000000e-008 9.980692840000000e-001 -1.041732000000000e-008 1.928204500000000e-003 2.103288630000000e-009
3.686950000000000e+001 1.928214070000000e-003 2.278352730000000e-009 9.980692840000000e-001 -1.124837450000000e-008 9.980692840000000e-001 -1.124837450000000e-008 1.928204500000000e-003 2.271081130000000e-009
3.981070000000000e+001 1.928214070000000e-003 2.460104410000000e-009 9.980692840000000e-001 -1.214569460000000e-008 9.980692840000000e-001 -1.214569460000000e-008 1.928204500000000e-003 2.452253210000000e-009
4.298660000000000e+001 1.928214070000000e-003 2.656359270000000e-009 9.980692840000000e-001 -1.311461750000000e-008 9.980692840000000e-001 -1.311461750000000e-008 1.928204500000000e-003 2.647881690000000e-009
4.641590000000000e+001 1.928214070000000e-003 2.868273010000000e-009 9.980692840000000e-001 -1.416084970000000e-008 9.980692840000000e-001 -1.416084970000000e-008 1.928204500000000e-003 2.859118940000000e-009
5.011870000000000e+001 1.928214070000000e-003 3.097087740000000e-009 9.980692840000000e-001 -1.529052260000000e-008 9.980692840000000e-001 -1.529052260000000e-008 1.928204500000000e-003 3.087203880000000e-009
5.411700000000000e+001 1.928214070000000e-003 3.344163110000000e-009 9.980692840000000e-001 -1.651034880000000e-008 9.980692840000000e-001 -1.651034880000000e-008 1.928204500000000e-003 3.333489870000000e-009
5.843410000000000e+001 1.928214070000000e-003 3.610938370000000e-009 9.980692840000000e-001 -1.782743630000000e-008 9.980692840000000e-001 -1.782743630000000e-008 1.928204500000000e-003 3.599413770000000e-009
6.309570000000000e+001 1.928214070000000e-003 3.899002160000000e-009 9.980692840000000e-001 -1.924962590000000e-008 9.980692840000000e-001 -1.924962590000000e-008 1.928204500000000e-003 3.886559100000000e-009
6.812920000000000e+001 1.928214070000000e-003 4.210047660000000e-009 9.980692840000000e-001 -2.078527750000000e-008 9.980692840000000e-001 -2.078527750000000e-008 1.928204500000000e-003 4.196611030000000e-009
7.356420000000000e+001 1.928214070000000e-003 4.545903740000000e-009 9.980692840000000e-001 -2.244342080000000e-008 9.980692840000000e-001 -2.244342080000000e-008 1.928204510000000e-003 4.531395310000000e-009
7.943280000000000e+001 1.928214070000000e-003 4.908554310000000e-009 9.980692840000000e-001 -2.423384950000000e-008 9.980692840000000e-001 -2.423384950000000e-008 1.928204510000000e-003 4.892888400000000e-009
8.576960000000000e+001 1.928214070000000e-003 5.300137080000000e-009 9.980692840000000e-001 -2.616711960000000e-008 9.980692840000000e-001 -2.616711960000000e-008 1.928204510000000e-003 5.283221440000000e-009
9.261190000000001e+001 1.928214070000000e-003 5.722957550000000e-009 9.980692840000000e-001 -2.825461100000000e-008 9.980692840000000e-001 -2.825461100000000e-008 1.928204510000000e-003 5.704692250000000e-009
1.000000000000000e+002 1.928214070000000e-003 6.179505560000000e-009 9.980692840000000e-001 -3.050861810000000e-008 9.980692840000000e-001 -3.050861810000000e-008 1.928204510000000e-003 6.159783160000000e-009
1.079780000000000e+002 1.928214070000000e-003 6.672506340000000e-009 9.980692840000000e-001 -3.294259590000000e-008 9.980692840000000e-001 -3.294259590000000e-008 1.928204510000000e-003 6.651211050000000e-009
1.165910000000000e+002 1.928214070000000e-003 7.204747170000000e-009 9.980692840000000e-001 -3.557030340000000e-008 9.980692840000000e-001 -3.557030340000000e-008 1.928204510000000e-003 7.181752780000000e-009
1.258930000000000e+002 1.928214070000000e-003 7.779564780000000e-009 9.980692840000000e-001 -3.840821480000000e-008 9.980692840000000e-001 -3.840821480000000e-008 1.928204510000000e-003 7.754736330000000e-009
1.359360000000000e+002 1.928214070000000e-003 8.400172590000000e-009 9.980692840000000e-001 -4.147219540000000e-008 9.980692840000000e-001 -4.147219540000000e-008 1.928204510000000e-003 8.373363229999999e-009
1.467800000000000e+002 1.928214070000000e-003 9.070277920000000e-009 9.980692840000000e-001 -4.478054970000000e-008 9.980692840000000e-001 -4.478054970000000e-008 1.928204510000000e-003 9.041330210000001e-009
1.584890000000000e+002 1.928214070000000e-003 9.793836410000001e-009 9.980692840000000e-001 -4.835280420000000e-008 9.980692840000000e-001 -4.835280420000000e-008 1.928204510000000e-003 9.762579299999999e-009
1.711330000000000e+002 1.928214070000000e-003 1.057517290000000e-008 9.980692840000000e-001 -5.221031320000000e-008 9.980692840000000e-001 -5.221031320000000e-008 1.928204510000000e-003 1.054142230000000e-008
1.847850000000000e+002 1.928214070000000e-003 1.141879900000000e-008 9.980692840000000e-001 -5.637535060000000e-008 9.980692840000000e-001 -5.637535060000000e-008 1.928204510000000e-003 1.138235600000000e-008
1.995260000000000e+002 1.928214070000000e-003 1.232972000000000e-008 9.980692840000000e-001 -6.087262570000000e-008 9.980692840000000e-001 -6.087262570000000e-008 1.928204510000000e-003 1.229036920000000e-008
2.154430000000000e+002 1.928214070000000e-003 1.331331200000000e-008 9.980692840000000e-001 -6.572868230000000e-008 9.980692840000000e-001 -6.572868230000000e-008 1.928204510000000e-003 1.327082170000000e-008
2.326310000000000e+002 1.928214070000000e-003 1.437544540000000e-008 9.980692840000000e-001 -7.097250350000000e-008 9.980692840000000e-001 -7.097250350000000e-008 1.928204510000000e-003 1.432956540000000e-008
2.511890000000000e+002 1.928214070000000e-003 1.552223760000000e-008 9.980692840000000e-001 -7.663429290000001e-008 9.980692840000000e-001 -7.663429290000001e-008 1.928204510000000e-003 1.547269860000000e-008
2.712270000000000e+002 1.928214070000000e-003 1.676048700000000e-008 9.980692840000000e-001 -8.274760949999999e-008 9.980692840000000e-001 -8.274760949999999e-008 1.928204510000000e-003 1.670699560000000e-008
2.928640000000000e+002 1.928214070000000e-003 1.809754660000000e-008 9.980692840000000e-001 -8.934875950000000e-008 9.980692840000000e-001 -8.934875950000000e-008 1.928204510000000e-003 1.803978780000000e-008
3.162280000000000e+002 1.928214070000000e-003 1.954132600000000e-008 9.980692840000000e-001 -9.647679259999999e-008 9.980692840000000e-001 -9.647679259999999e-008 1.928204510000000e-003 1.947895950000000e-008
3.414550000000000e+002 1.928214070000000e-003 2.110022960000000e-008 9.980692840000000e-001 -1.041732020000000e-007 9.980692840000000e-001 -1.041732020000000e-007 1.928204510000000e-003 2.103288820000000e-008
3.686950000000000e+002 1.928214070000000e-003 2.278352690000000e-008 9.980692840000000e-001 -1.124837490000000e-007 9.980692840000000e-001 -1.124837490000000e-007 1.928204510000000e-003 2.271081260000000e-008
3.981070000000000e+002 1.928214070000000e-003 2.460104280000000e-008 9.980692840000000e-001 -1.214569440000000e-007 9.980692840000000e-001 -1.214569440000000e-007 1.928204510000000e-003 2.452252800000000e-008
4.298660000000000e+002 1.928214080000000e-003 2.656359150000000e-008 9.980692840000000e-001 -1.311461750000000e-007 9.980692840000000e-001 -1.311461750000000e-007 1.928204510000000e-003 2.647881330000000e-008
4.641590000000000e+002 1.928214080000000e-003 2.868272900000000e-008 9.980692840000000e-001 -1.416084950000000e-007 9.980692840000000e-001 -1.416084950000000e-007 1.928204510000000e-003 2.859118730000000e-008
5.011870000000000e+002 1.928214080000000e-003 3.097087570000000e-008 9.980692840000000e-001 -1.529052260000000e-007 9.980692840000000e-001 -1.529052260000000e-007 1.928204510000000e-003 3.087203170000000e-008
5.411700000000000e+002 1.928214080000000e-003 3.344162690000000e-008 9.980692840000000e-001 -1.651034860000000e-007 9.980692840000000e-001 -1.651034860000000e-007 1.928204510000000e-003 3.333489750000000e-008
5.843410000000000e+002 1.928214080000000e-003 3.610938060000000e-008 9.980692840000000e-001 -1.782743610000000e-007 9.980692840000000e-001 -1.782743610000000e-007 1.928204520000000e-003 3.599413670000000e-008
6.309570000000000e+002 1.928214080000000e-003 3.899001780000000e-008 9.980692840000000e-001 -1.924962580000000e-007 9.980692840000000e-001 -1.924962580000000e-007 1.928204520000000e-003 3.886558020000000e-008
6.812920000000000e+002 1.928214080000000e-003 4.210047080000000e-008 9.980692840000000e-001 -2.078527690000000e-007 9.980692840000000e-001 -2.078527690000000e-007 1.928204520000000e-003 4.196610600000000e-008
7.356420000000001e+002 1.928214090000000e-003 4.545903050000000e-008 9.980692840000000e-001 -2.244342020000000e-007 9.980692840000000e-001 -2.244342020000000e-007 1.928204520000000e-003 4.531394710000000e-008
7.943280000000000e+002 1.928214090000000e-003 4.908553320000000e-008 9.980692840000000e-001 -2.423384870000000e-007 9.980692840000000e-001 -2.423384870000000e-007 1.928204520000000e-003 4.892887550000000e-008
8.576960000000000e+002 1.928214090000000e-003 5.300135970000000e-008 9.980692840000000e-001 -2.616711860000000e-007 9.980692840000000e-001 -2.616711860000000e-007 1.928204530000000e-003 5.283220490000000e-008
9.261190000000000e+002 1.928214100000000e-003 5.722955990000000e-008 9.980692840000000e-001 -2.825460940000000e-007 9.980692840000000e-001 -2.825460940000000e-007 1.928204530000000e-003 5.704691020000000e-008
1.000000000000000e+003 1.928214100000000e-003 6.179503650000001e-008 9.980692840000000e-001 -3.050861630000000e-007 9.980692840000000e-001 -3.050861630000000e-007 1.928204540000000e-003 6.159781660000000e-008
1.079780000000000e+003 1.928214110000000e-003 6.672504110000000e-008 9.980692840000000e-001 -3.294259340000000e-007 9.980692840000000e-001 -3.294259340000000e-007 1.928204540000000e-003 6.651208710000000e-008
1.165910000000000e+003 1.928214110000000e-003 7.204744340000000e-008 9.980692840000000e-001 -3.557030000000000e-007 9.980692840000000e-001 -3.557030000000000e-007 1.928204550000000e-003 7.181750229999999e-008
1.258930000000000e+003 1.928214120000000e-003 7.779561190000000e-008 9.980692840000000e-001 -3.840821090000000e-007 9.980692840000000e-001 -3.840821090000000e-007 1.928204550000000e-003 7.754732530000000e-008
1.359360000000000e+003 1.928214130000000e-003 8.400167960000000e-008 9.980692840000000e-001 -4.147219040000000e-007 9.980692840000000e-001 -4.147219040000000e-007 1.928204560000000e-003 8.373358650000000e-008
1.467800000000000e+003 1.928214140000000e-003 9.070272350000000e-008 9.980692840000000e-001 -4.478054370000000e-007 9.980692840000000e-001 -4.478054370000000e-007 1.928204570000000e-003 9.041324430000000e-008
1.584890000000000e+003 1.928214150000000e-003 9.793829140000000e-008 9.980692840000000e-001 -4.835279620000000e-007 9.980692840000000e-001 -4.835279620000000e-007 1.928204580000000e-003 9.762571970000000e-008
1.711330000000000e+003 1.928214160000000e-003 1.057516390000000e-007 9.980692840000000e-001 -5.221030390000000e-007 9.980692840000000e-001 -5.221030390000000e-007 1.928204600000000e-003 1.054141310000000e-007
1.847850000000000e+003 1.928214180000000e-003 1.141878760000000e-007 9.980692840000000e-001 -5.637533800000000e-007 9.980692840000000e-001 -5.637533800000000e-007 1.928204610000000e-003 1.138234440000000e-007
1.995260000000000e+003 1.928214200000000e-003 1.232970550000000e-007 9.980692840000000e-001 -6.087261020000000e-007 9.980692840000000e-001 -6.087261020000000e-007 1.928204630000000e-003 1.229035510000000e-007
2.154430000000000e+003 1.928214220000000e-003 1.331329360000000e-007 9.980692840000000e-001 -6.572866300000000e-007 9.980692840000000e-001 -6.572866300000000e-007 1.928204650000000e-003 1.327080420000000e-007
2.326310000000000e+003 1.928214240000000e-003 1.437542230000000e-007 9.980692840000000e-001 -7.097247920000000e-007 9.980692840000000e-001 -7.097247920000000e-007 1.928204670000000e-003 1.432954300000000e-007
2.511890000000000e+003 1.928214270000000e-003 1.552220890000000e-007 9.980692840000000e-001 -7.663426230000000e-007 9.980692840000000e-001 -7.663426230000000e-007 1.928204700000000e-003 1.547266980000000e-007
2.712270000000000e+003 1.928214300000000e-003 1.676045070000000e-007 9.980692840000000e-001 -8.274757130000000e-007 9.980692840000000e-001 -8.274757130000000e-007 1.928204740000000e-003 1.670695980000000e-007
2.928640000000000e+003 1.928214340000000e-003 1.809750080000000e-007 9.980692840000000e-001 -8.934871090000000e-007 9.980692840000000e-001 -8.934871090000000e-007 1.928204770000000e-003 1.803974280000000e-007
3.162280000000000e+003 1.928214390000000e-003 1.954126850000000e-007 9.980692840000000e-001 -9.647673180000001e-007 9.980692840000000e-001 -9.647673180000001e-007 1.928204820000000e-003 1.947890280000000e-007
3.414550000000000e+003 1.928214440000000e-003 2.110015730000000e-007 9.980692830000000e-001 -1.041731250000000e-006 9.980692830000000e-001 -1.041731250000000e-006 1.928204870000000e-003 2.103281650000000e-007
3.686950000000000e+003 1.928214500000000e-003 2.278343570000000e-007 9.980692830000000e-001 -1.124836530000000e-006 9.980692830000000e-001 -1.124836530000000e-006 1.928204930000000e-003 2.271072300000000e-007
3.981070000000000e+003 1.928214570000000e-003 2.460092800000000e-007 9.980692830000000e-001 -1.214568220000000e-006 9.980692830000000e-001 -1.214568220000000e-006 1.928205000000000e-003 2.452241500000000e-007
4.298660000000000e+003 1.928214660000000e-003 2.656344710000000e-007 9.980692830000000e-001 -1.311460230000000e-006 9.980692830000000e-001 -1.311460230000000e-006 1.928205080000000e-003 2.647867110000000e-007
4.641590000000000e+003 1.928214760000000e-003 2.868254720000000e-007 9.980692830000000e-001 -1.416083030000000e-006 9.980692830000000e-001 -1.416083030000000e-006 1.928205180000000e-003 2.859100840000000e-007
5.011870000000000e+003 1.928214870000000e-003 3.097064690000000e-007 9.980692830000000e-001 -1.529049840000000e-006 9.980692830000000e-001 -1.529049840000000e-006 1.928205290000000e-003 3.087180620000000e-007
5.411700000000000e+003 1.928215000000000e-003 3.344133870000000e-007 9.980692830000000e-001 -1.651031810000000e-006 9.980692830000000e-001 -1.651031810000000e-006 1.928205420000000e-003 3.333461350000000e-007
5.843410000000000e+003 1.928215160000000e-003 3.610901760000000e-007 9.980692830000000e-001 -1.782739770000000e-006 9.980692830000000e-001 -1.782739770000000e-006 1.928205580000000e-003 3.599377940000000e-007
6.309570000000000e+003 1.928215340000000e-003 3.898956100000000e-007 9.980692830000000e-001 -1.924957740000000e-006 9.980692830000000e-001 -1.924957740000000e-006 1.928205750000000e-003 3.886513060000000e-007
6.812920000000000e+003 1.928215550000000e-003 4.209989560000000e-007 9.980692820000000e-001 -2.078521610000000e-006 9.980692820000000e-001 -2.078521610000000e-006 1.928205960000000e-003 4.196554000000000e-007
