![Disclaimer] This software code/ model/ data and all associated documentation, comments
!    or other information (collectively "Software") is provided 
!    "AS IS" without warranty of any kind. MICRON TECHNOLOGY, INC. 
!    ("MTI") EXPRESSLY DISCLAIMS ALL WARRANTIES EXPRESS OR IMPLIED,
!    INCLUDING BUT NOT LIMITED TO, NONINFRINGEMENT OF THIRD PARTY
!    RIGHTS, AND ANY IMPLIED WARRANTIES OF MERCHANTABILITY OR FITNESS
!    FOR ANY PARTICULAR PURPOSE. MTI DOES NOT WARRANT THAT THE
!    SOFTWARE WILL MEET YOUR REQUIREMENTS, OR THAT THE OPERATION OF
!    THE SOFTWARE WILL BE UNINTERRUPTED OR ERROR-FREE. FURTHERMORE,
!    MTI DOES NOT MAKE ANY REPRESENTATIONS REGARDING THE USE OR THE
!    RESULTS OF THE USE OF THE SOFTWARE IN TERMS OF ITS CORRECTNESS,
!    ACCURACY, RELIABILITY, OR OTHERWISE. THE ENTIRE RISK ARISING OUT
!    OF USE OR PERFORMANCE OF THE SOFTWARE REMAINS WITH YOU. IN NO
!    EVENT SHALL MTI, ITS AFFILIATED COMPANIES OR THEIR SUPPLIERS BE
!    LIABLE FOR ANY DIRECT, INDIRECT, CONSEQUENTIAL, INCIDENTAL, OR
!    SPECIAL DAMAGES (INCLUDING, WITHOUT LIMITATION, DAMAGES FOR LOSS
!    OF PROFITS, BUSINESS INTERRUPTION, OR LOSS OF INFORMATION)
!    ARISING OUT OF YOUR USE OF OR INABILITY TO USE THE SOFTWARE,
!    EVEN IF MTI HAS BEEN ADVISED OF THE POSSIBILITY OF SUCH DAMAGES.
!    Because some jurisdictions prohibit the exclusion or limitation
!    of liability for consequential or incidental damages, the above
!    limitation may not apply to you.
!    Copyright 2019 Micron Technology, Inc. All rights reserved.

! Single-ended  S-parameters
!NUMBER OF PORTS = 4
!   PORT#     PORT_NAME  NET_NAME
! PORT19:  DQS-C.BGA.VDDQ_VSS DQS-C
! PORT20:  DQS-C.Z11B_DIE.VDDQ_VSS DQS-C
! PORT21:  DQS-T.BGA.VDDQ_VSS DQS-T
! PORT22:  DQS-T.Z11B_DIE.VDDQ_VSS DQS-T

# HZ S  RI R 5.000000e+001
! 
1.000000000000000e+001 1.940753250000000e-003 5.863237950000001e-010 9.980567610000000e-001 -2.841758570000000e-009 1.371766300000000e-004 4.383271380000000e-010 -1.371487840000000e-004 -4.070195460000000e-010
                       9.980567610000000e-001 -2.841758570000000e-009 1.940743270000000e-003 5.895273710000002e-010 -1.371484130000000e-004 -4.052052440000000e-010 1.371763720000000e-004 4.296598360000000e-010
                       1.371766300000000e-004 4.383271380000000e-010 -1.371484130000000e-004 -4.052052440000000e-010 1.887832860000000e-003 7.682171700000000e-010 9.981096770000000e-001 -2.835860380000000e-009
                       -1.371487840000000e-004 -4.070195460000000e-010 1.371763720000000e-004 4.296598360000000e-010 9.981096770000000e-001 -2.835860380000000e-009 1.887823550000000e-003 7.694570260000000e-010
1.079780000000000e+001 1.940753250000000e-003 6.331006270000000e-010 9.980567610000000e-001 -3.068473670000000e-009 1.371766300000000e-004 4.732969290000000e-010 -1.371487840000000e-004 -4.394915920000000e-010
                       9.980567610000000e-001 -3.068473670000000e-009 1.940743270000000e-003 6.365595000000000e-010 -1.371484130000000e-004 -4.375325850000000e-010 1.371763720000000e-004 4.639381340000000e-010
                       1.371766300000000e-004 4.732969290000000e-010 -1.371484130000000e-004 -4.375325850000000e-010 1.887832860000000e-003 8.295056030000000e-010 9.981096770000000e-001 -3.062105100000000e-009
                       -1.371487840000000e-004 -4.394915920000000e-010 1.371763720000000e-004 4.639381340000000e-010 9.981096770000000e-001 -3.062105100000000e-009 1.887823550000000e-003 8.308441160000000e-010
1.165910000000000e+001 1.940753250000000e-003 6.836007590000000e-010 9.980567610000000e-001 -3.313233940000000e-009 1.371766300000000e-004 5.110500500000000e-010 -1.371487840000000e-004 -4.745482040000000e-010
                       9.980567610000000e-001 -3.313233940000000e-009 1.940743270000000e-003 6.873354390000000e-010 -1.371484130000000e-004 -4.724329050000000e-010 1.371763720000000e-004 5.009446760000000e-010
                       1.371766300000000e-004 5.110500500000000e-010 -1.371484130000000e-004 -4.724329050000000e-010 1.887832860000000e-003 8.956720780000000e-010 9.981096770000000e-001 -3.306357700000000e-009
                       -1.371487840000000e-004 -4.745482040000000e-010 1.371763720000000e-004 5.009446760000000e-010 9.981096770000000e-001 -3.306357700000000e-009 1.887823550000000e-003 8.971172690000000e-010
1.258930000000000e+001 1.940753250000000e-003 7.381403820000000e-010 9.980567610000000e-001 -3.577574730000000e-009 1.371766300000000e-004 5.518232120000000e-010 -1.371487840000000e-004 -5.124091280000000e-010
                       9.980567610000000e-001 -3.577574730000000e-009 1.940743270000000e-003 7.421735450000000e-010 -1.371484130000000e-004 -5.101250500000001e-010 1.371763720000000e-004 5.409116390000000e-010
                       1.371766300000000e-004 5.518232120000000e-010 -1.371484130000000e-004 -5.101250500000001e-010 1.887832860000000e-003 9.671315970000000e-010 9.981096770000000e-001 -3.570149540000000e-009
                       -1.371487840000000e-004 -5.124091280000000e-010 1.371763720000000e-004 5.409116390000000e-010 9.981096770000000e-001 -3.570149540000000e-009 1.887823550000000e-003 9.686924320000001e-010
1.359360000000000e+001 1.940753250000000e-003 7.970250990000000e-010 9.980567610000000e-001 -3.862972500000000e-009 1.371766300000000e-004 5.958444710000000e-010 -1.371487840000000e-004 -5.532861130000000e-010
                       9.980567610000000e-001 -3.862972500000000e-009 1.940743270000000e-003 8.013796020000000e-010 -1.371484130000000e-004 -5.508198650000000e-010 1.371763720000000e-004 5.840624420000001e-010
                       1.371766300000000e-004 5.958444710000000e-010 -1.371484130000000e-004 -5.508198650000000e-010 1.887832860000000e-003 1.044283830000000e-009 9.981096770000000e-001 -3.854955290000000e-009
                       -1.371487840000000e-004 -5.532861130000000e-010 1.371763720000000e-004 5.840624420000001e-010 9.981096770000000e-001 -3.854955290000000e-009 1.887823550000000e-003 1.045968840000000e-009
1.467800000000000e+001 1.940753250000000e-003 8.606061280000000e-010 9.980567610000000e-001 -4.171132610000000e-009 1.371766300000000e-004 6.433766710000000e-010 -1.371487840000000e-004 -5.974233650000000e-010
                       9.980567610000000e-001 -4.171132610000000e-009 1.940743270000000e-003 8.653077700000000e-010 -1.371484130000000e-004 -5.947603570000000e-010 1.371763720000000e-004 6.306547800000000e-010
                       1.371766300000000e-004 6.433766710000000e-010 -1.371484130000000e-004 -5.947603570000000e-010 1.887832860000000e-003 1.127589330000000e-009 9.981096770000000e-001 -4.162475840000000e-009
                       -1.371487840000000e-004 -5.974233650000000e-010 1.371763720000000e-004 6.306547800000000e-010 9.981096770000000e-001 -4.162475840000000e-009 1.887823550000000e-003 1.129408480000000e-009
1.584890000000000e+001 1.940753250000000e-003 9.292585030000000e-010 9.980567610000000e-001 -4.503873690000000e-009 1.371766300000000e-004 6.947003530000000e-010 -1.371487840000000e-004 -6.450812620000000e-010
                       9.980567610000000e-001 -4.503873690000000e-009 1.940743270000000e-003 9.343355530000000e-010 -1.371484130000000e-004 -6.422058090000000e-010 1.371763720000000e-004 6.809635290000000e-010
                       1.371766300000000e-004 6.947003530000000e-010 -1.371484130000000e-004 -6.422058090000000e-010 1.887832860000000e-003 1.217539740000000e-009 9.981096770000000e-001 -4.494526650000000e-009
                       -1.371487840000000e-004 -6.450812620000000e-010 1.371763720000000e-004 6.809635290000000e-010 9.981096770000000e-001 -4.494526650000000e-009 1.887823550000000e-003 1.219504220000000e-009
1.711330000000000e+001 1.940753250000000e-003 1.003393530000000e-009 9.980567610000000e-001 -4.863185710000000e-009 1.371766300000000e-004 7.501225060000000e-010 -1.371487840000000e-004 -6.965447990000000e-010
                       9.980567610000000e-001 -4.863185710000000e-009 1.940743270000000e-003 1.008875210000000e-009 -1.371484130000000e-004 -6.934399910000000e-010 1.371763720000000e-004 7.352897330000000e-010
                       1.371766300000000e-004 7.501225060000000e-010 -1.371484130000000e-004 -6.934399910000000e-010 1.887832860000000e-003 1.314673480000000e-009 9.981096770000000e-001 -4.853092350000000e-009
                       -1.371487840000000e-004 -6.965447990000000e-010 1.371763720000000e-004 7.352897330000000e-010 9.981096770000000e-001 -4.853092350000000e-009 1.887823550000000e-003 1.316794260000000e-009
1.847850000000000e+001 1.940753250000000e-003 1.083438440000000e-009 9.980567610000000e-001 -5.251142580000000e-009 1.371766300000000e-004 8.099629020000002e-010 -1.371487840000000e-004 -7.521111200000000e-010
                       9.980567610000000e-001 -5.251142580000000e-009 1.940743270000000e-003 1.089357380000000e-009 -1.371484130000000e-004 -7.487586400000001e-010 1.371763720000000e-004 7.939469140000000e-010
                       1.371766300000000e-004 8.099629020000002e-010 -1.371484130000000e-004 -7.487586400000001e-010 1.887832860000000e-003 1.419550260000000e-009 9.981096770000000e-001 -5.240244420000000e-009
                       -1.371487840000000e-004 -7.521111200000000e-010 1.371763720000000e-004 7.939469140000000e-010 9.981096770000000e-001 -5.240244420000000e-009 1.887823550000000e-003 1.421840450000000e-009
1.995260000000000e+001 1.940753250000000e-003 1.169868450000000e-009 9.980567610000000e-001 -5.670045860000000e-009 1.371766300000000e-004 8.745767300000000e-010 -1.371487840000000e-004 -8.121098790000000e-010
                       9.980567610000000e-001 -5.670045860000000e-009 1.940743270000000e-003 1.176259700000000e-009 -1.371484130000000e-004 -8.084899360000000e-010 1.371763720000000e-004 8.572830560000000e-010
                       1.371766300000000e-004 8.745767300000000e-010 -1.371484130000000e-004 -8.084899360000000e-010 1.887832860000000e-003 1.532793250000000e-009 9.981096770000000e-001 -5.658278290000000e-009
                       -1.371487840000000e-004 -8.121098790000000e-010 1.371763720000000e-004 8.572830560000000e-010 9.981096770000000e-001 -5.658278290000000e-009 1.887823550000000e-003 1.535266050000000e-009
2.154430000000000e+001 1.940753250000000e-003 1.263193650000000e-009 9.980567610000000e-001 -6.122368790000000e-009 1.371766300000000e-004 9.443452270000000e-010 -1.371487840000000e-004 -8.768951580000000e-010
                       9.980567610000000e-001 -6.122368790000000e-009 1.940743270000000e-003 1.270094700000000e-009 -1.371484130000000e-004 -8.729864260000002e-010 1.371763720000000e-004 9.256720560000000e-010
                       1.371766300000000e-004 9.443452270000000e-010 -1.371484130000000e-004 -8.729864260000002e-010 1.887832860000000e-003 1.655070260000000e-009 9.981096770000000e-001 -6.109662390000000e-009
                       -1.371487840000000e-004 -8.768951580000000e-010 1.371763720000000e-004 9.256720560000000e-010 9.981096770000000e-001 -6.109662390000000e-009 1.887823550000000e-003 1.657740670000000e-009
2.326310000000000e+001 1.940753250000000e-003 1.363970940000000e-009 9.980567610000000e-001 -6.610809980000000e-009 1.371766300000000e-004 1.019684930000000e-009 -1.371487840000000e-004 -9.468536909999999e-010
                       9.980567610000000e-001 -6.610809980000000e-009 1.940743270000000e-003 1.371422640000000e-009 -1.371484130000000e-004 -9.426331350000001e-010 1.371763720000000e-004 9.995219720000001e-010
                       1.371766300000000e-004 1.019684930000000e-009 -1.371484130000000e-004 -9.426331350000001e-010 1.887832860000000e-003 1.787111530000000e-009 9.981096770000000e-001 -6.597090110000000e-009
                       -1.371487840000000e-004 -9.468536909999999e-010 1.371763720000000e-004 9.995219720000001e-010 9.981096770000000e-001 -6.597090110000000e-009 1.887823550000000e-003 1.789994820000000e-009
2.511890000000000e+001 1.940753250000000e-003 1.472780650000000e-009 9.980567610000000e-001 -7.138183890000000e-009 1.371766300000000e-004 1.101029660000000e-009 -1.371487840000000e-004 -1.022388380000000e-009
                       9.980567610000000e-001 -7.138183890000000e-009 1.940743270000000e-003 1.480827520000000e-009 -1.371484130000000e-004 -1.017831080000000e-009 1.371763720000000e-004 1.079258310000000e-009
                       1.371766300000000e-004 1.101029660000000e-009 -1.371484130000000e-004 -1.017831080000000e-009 1.887832860000000e-003 1.929677280000000e-009 9.981096770000000e-001 -7.123369050000000e-009
                       -1.371487840000000e-004 -1.022388380000000e-009 1.371763720000000e-004 1.079258310000000e-009 9.981096770000000e-001 -7.123369050000000e-009 1.887823550000000e-003 1.932790900000000e-009
2.712270000000000e+001 1.940753250000000e-003 1.590268400000000e-009 9.980567610000000e-001 -7.707615020000000e-009 1.371766300000000e-004 1.188861700000000e-009 -1.371487840000000e-004 -1.103946960000000e-009
                       9.980567610000000e-001 -7.707615020000000e-009 1.940743270000000e-003 1.598956550000000e-009 -1.371484130000000e-004 -1.099026170000000e-009 1.371763720000000e-004 1.165353520000000e-009
                       1.371766300000000e-004 1.188861700000000e-009 -1.371484130000000e-004 -1.099026170000000e-009 1.887832860000000e-003 2.083612630000000e-009 9.981096770000000e-001 -7.691618619999999e-009
                       -1.371487840000000e-004 -1.103946960000000e-009 1.371763720000000e-004 1.165353520000000e-009 9.981096770000000e-001 -7.691618619999999e-009 1.887823550000000e-003 2.086974370000000e-009
2.928640000000000e+001 1.940753250000000e-003 1.717131280000000e-009 9.980567610000000e-001 -8.322486509999999e-009 1.371766300000000e-004 1.283702520000000e-009 -1.371487840000000e-004 -1.192013790000000e-009
                       9.980567610000000e-001 -8.322486509999999e-009 1.940743270000000e-003 1.726512540000000e-009 -1.371484130000000e-004 -1.186700410000000e-009 1.371763720000000e-004 1.258318990000000e-009
                       1.371766300000000e-004 1.283702520000000e-009 -1.371484130000000e-004 -1.186700410000000e-009 1.887832860000000e-003 2.249831930000000e-009 9.981096770000000e-001 -8.305213599999999e-009
                       -1.371487840000000e-004 -1.192013790000000e-009 1.371763720000000e-004 1.258318990000000e-009 9.981096770000000e-001 -8.305213599999999e-009 1.887823550000000e-003 2.253461780000000e-009
3.162280000000000e+001 1.940753250000000e-003 1.854119890000000e-009 9.980567610000000e-001 -8.986435090000000e-009 1.371766300000000e-004 1.386113270000000e-009 -1.371487840000000e-004 -1.287109830000000e-009
                       9.980567610000000e-001 -8.986435090000000e-009 1.940743270000000e-003 1.864249730000000e-009 -1.371484130000000e-004 -1.281372610000000e-009 1.371763720000000e-004 1.358704730000000e-009
                       1.371766300000000e-004 1.386113270000000e-009 -1.371484130000000e-004 -1.281372610000000e-009 1.887832860000000e-003 2.429318020000000e-009 9.981096770000000e-001 -8.967784390000001e-009
                       -1.371487840000000e-004 -1.287109830000000e-009 1.371763720000000e-004 1.358704730000000e-009 9.981096770000000e-001 -8.967784390000001e-009 1.887823550000000e-003 2.433237690000000e-009
3.414550000000000e+001 1.940753250000000e-003 2.002031800000000e-009 9.980567610000000e-001 -9.703324900000000e-009 1.371766300000000e-004 1.496690090000000e-009 -1.371487840000000e-004 -1.389788670000000e-009
                       9.980567610000000e-001 -9.703324900000000e-009 1.940743270000000e-003 2.012969710000000e-009 -1.371484130000000e-004 -1.383593720000000e-009 1.371763720000000e-004 1.467095040000000e-009
                       1.371766300000000e-004 1.496690090000000e-009 -1.371484130000000e-004 -1.383593720000000e-009 1.887832860000000e-003 2.623116350000000e-009 9.981096770000000e-001 -9.683186470000000e-009
                       -1.371487840000000e-004 -1.389788670000000e-009 1.371763720000000e-004 1.467095040000000e-009 9.981096770000000e-001 -9.683186470000000e-009 1.887823550000000e-003 2.627348420000000e-009
3.686950000000000e+001 1.940753250000000e-003 2.161746550000000e-009 9.980567610000000e-001 -1.047742010000000e-008 1.371766300000000e-004 1.616090460000000e-009 -1.371487840000000e-004 -1.500660790000000e-009
                       9.980567610000000e-001 -1.047742010000000e-008 1.940743270000000e-003 2.173556580000000e-009 -1.371484130000000e-004 -1.493971660000000e-009 1.371763720000000e-004 1.584134270000000e-009
                       1.371766300000000e-004 1.616090460000000e-009 -1.371484130000000e-004 -1.493971660000000e-009 1.887832860000000e-003 2.832378480000000e-009 9.981096770000000e-001 -1.045567460000000e-008
                       -1.371487840000000e-004 -1.500660790000000e-009 1.371763720000000e-004 1.584134270000000e-009 9.981096770000000e-001 -1.045567460000000e-008 1.887823550000000e-003 2.836948430000000e-009
3.981070000000000e+001 1.940753250000000e-003 2.334195990000000e-009 9.980567610000000e-001 -1.131323800000000e-008 1.371766300000000e-004 1.745011160000000e-009 -1.371487840000000e-004 -1.620373390000000e-009
                       9.980567610000000e-001 -1.131323800000000e-008 1.940743270000000e-003 2.346948890000000e-009 -1.371484130000000e-004 -1.613150600000000e-009 1.371763720000000e-004 1.710505950000000e-009
                       1.371766300000000e-004 1.745011160000000e-009 -1.371484130000000e-004 -1.613150600000000e-009 1.887832860000000e-003 3.058326690000000e-009 9.981096770000000e-001 -1.128975830000000e-008
                       -1.371487840000000e-004 -1.620373390000000e-009 1.371763720000000e-004 1.710505950000000e-009 9.981096770000000e-001 -1.128975830000000e-008 1.887823550000000e-003 3.063261390000000e-009
4.298660000000000e+001 1.940753250000000e-003 2.520406510000000e-009 9.980567610000000e-001 -1.221575170000000e-008 1.371766300000000e-004 1.884219490000000e-009 -1.371487840000000e-004 -1.749638710000000e-009
                       9.980567610000000e-001 -1.221575170000000e-008 1.940743270000000e-003 2.534176560000000e-009 -1.371484130000000e-004 -1.741839760000000e-009 1.371763720000000e-004 1.846961520000000e-009
                       1.371766300000000e-004 1.884219490000000e-009 -1.371484130000000e-004 -1.741839760000000e-009 1.887832860000000e-003 3.302304710000000e-009 9.981096770000000e-001 -1.219039890000000e-008
                       -1.371487840000000e-004 -1.749638710000000e-009 1.371763720000000e-004 1.846961520000000e-009 9.981096770000000e-001 -1.219039890000000e-008 1.887823550000000e-003 3.307632890000000e-009
4.641590000000000e+001 1.940753250000000e-003 2.721474480000000e-009 9.980567610000000e-001 -1.319027650000000e-008 1.371766300000000e-004 2.034535070000000e-009 -1.371487840000000e-004 -1.889217930000000e-009
                       9.980567610000000e-001 -1.319027650000000e-008 1.940743270000000e-003 2.736343100000000e-009 -1.371484130000000e-004 -1.880796800000000e-009 1.371763720000000e-004 1.994304810000000e-009
                       1.371766300000000e-004 2.034535070000000e-009 -1.371484130000000e-004 -1.880796800000000e-009 1.887832860000000e-003 3.565749490000000e-009 9.981096770000000e-001 -1.316290070000000e-008
                       -1.371487840000000e-004 -1.889217930000000e-009 1.371763720000000e-004 1.994304810000000e-009 9.981096770000000e-001 -1.316290070000000e-008 1.887823550000000e-003 3.571502870000000e-009
5.011870000000000e+001 1.940753250000000e-003 2.938578370000000e-009 9.980567610000000e-001 -1.424252230000000e-008 1.371766300000000e-004 2.196838780000000e-009 -1.371487840000000e-004 -2.039929140000000e-009
                       9.980567610000000e-001 -1.424252230000000e-008 1.940743270000000e-003 2.954633430000000e-009 -1.371484130000000e-004 -2.030836200000000e-009 1.371763720000000e-004 2.153399260000000e-009
