![Disclaimer] This software code/ model/ data and all associated documentation, comments
!    or other information (collectively "Software") is provided 
!    "AS IS" without warranty of any kind. MICRON TECHNOLOGY, INC. 
!    ("MTI") EXPRESSLY DISCLAIMS ALL WARRANTIES EXPRESS OR IMPLIED,
!    INCLUDING BUT NOT LIMITED TO, NONINFRINGEMENT OF THIRD PARTY
!    RIGHTS, AND ANY IMPLIED WARRANTIES OF MERCHANTABILITY OR FITNESS
!    FOR ANY PARTICULAR PURPOSE. MTI DOES NOT WARRANT THAT THE
!    SOFTWARE WILL MEET YOUR REQUIREMENTS, OR THAT THE OPERATION OF
!    THE SOFTWARE WILL BE UNINTERRUPTED OR ERROR-FREE. FURTHERMORE,
!    MTI DOES NOT MAKE ANY REPRESENTATIONS REGARDING THE USE OR THE
!    RESULTS OF THE USE OF THE SOFTWARE IN TERMS OF ITS CORRECTNESS,
!    ACCURACY, RELIABILITY, OR OTHERWISE. THE ENTIRE RISK ARISING OUT
!    OF USE OR PERFORMANCE OF THE SOFTWARE REMAINS WITH YOU. IN NO
!    EVENT SHALL MTI, ITS AFFILIATED COMPANIES OR THEIR SUPPLIERS BE
!    LIABLE FOR ANY DIRECT, INDIRECT, CONSEQUENTIAL, INCIDENTAL, OR
!    SPECIAL DAMAGES (INCLUDING, WITHOUT LIMITATION, DAMAGES FOR LOSS
!    OF PROFITS, BUSINESS INTERRUPTION, OR LOSS OF INFORMATION)
!    ARISING OUT OF YOUR USE OF OR INABILITY TO USE THE SOFTWARE,
!    EVEN IF MTI HAS BEEN ADVISED OF THE POSSIBILITY OF SUCH DAMAGES.
!    Because some jurisdictions prohibit the exclusion or limitation
!    of liability for consequential or incidental damages, the above
!    limitation may not apply to you.
!    Copyright 2019 Micron Technology, Inc. All rights reserved.

! Single-ended  S-parameters
!NUMBER OF PORTS = 2
!   PORT#     PORT_NAME  NET_NAME
! PORT1:  DQ6.BGA.VDDQ_VSS DQ6
! PORT2:  DQ6.Z11B_DIE.VDDQ_VSS DQ6

# HZ S  RI R 5.000000e+001
! 
1.000000000000000e+001 1.881836500000000e-003 4.707850500000000e-010 9.981156580000000e-001 -2.864035060000000e-009 9.981156580000000e-001 -2.864035060000000e-009 1.881826320000000e-003 4.734762300000000e-010
1.079780000000000e+001 1.881836500000000e-003 5.083444780000000e-010 9.981156580000000e-001 -3.092527860000000e-009 9.981156580000000e-001 -3.092527860000000e-009 1.881826320000000e-003 5.112499040000000e-010
1.165910000000000e+001 1.881836500000000e-003 5.488929590000000e-010 9.981156580000000e-001 -3.339206970000000e-009 9.981156580000000e-001 -3.339206970000000e-009 1.881826320000000e-003 5.520304210000000e-010
1.258930000000000e+001 1.881836500000000e-003 5.926853730000000e-010 9.981156580000000e-001 -3.605619900000000e-009 9.981156580000000e-001 -3.605619900000000e-009 1.881826320000000e-003 5.960734680000000e-010
1.359360000000000e+001 1.881836500000000e-003 6.399665520000000e-010 9.981156580000000e-001 -3.893255220000000e-009 9.981156580000000e-001 -3.893255220000000e-009 1.881826320000000e-003 6.436244320000000e-010
1.467800000000000e+001 1.881836500000000e-003 6.910185480000000e-010 9.981156580000000e-001 -4.203830980000000e-009 9.981156580000000e-001 -4.203830980000000e-009 1.881826320000000e-003 6.949680550000000e-010
1.584890000000000e+001 1.881836500000000e-003 7.461426200000000e-010 9.981156580000000e-001 -4.539180870000000e-009 9.981156580000000e-001 -4.539180870000000e-009 1.881826320000000e-003 7.504076530000000e-010
1.711330000000000e+001 1.881836500000000e-003 8.056686980000000e-010 9.981156580000000e-001 -4.901309500000000e-009 9.981156580000000e-001 -4.901309500000000e-009 1.881826320000000e-003 8.102736260000000e-010
1.847850000000000e+001 1.881836500000000e-003 8.699402030000000e-010 9.981156580000000e-001 -5.292307550000000e-009 9.981156580000000e-001 -5.292307550000000e-009 1.881826320000000e-003 8.749125870000000e-010
1.995260000000000e+001 1.881836500000000e-003 9.393388010000000e-010 9.981156580000000e-001 -5.714494800000000e-009 9.981156580000000e-001 -5.714494800000000e-009 1.881826320000000e-003 9.447077010000000e-010
2.154430000000000e+001 1.881836500000000e-003 1.014273690000000e-009 9.981156580000000e-001 -6.170363250000000e-009 9.981156580000000e-001 -6.170363250000000e-009 1.881826320000000e-003 1.020070860000000e-009
2.326310000000000e+001 1.881836500000000e-003 1.095192020000000e-009 9.981156580000000e-001 -6.662633850000000e-009 9.981156580000000e-001 -6.662633850000000e-009 1.881826320000000e-003 1.101451870000000e-009
2.511890000000000e+001 1.881836500000000e-003 1.182560380000000e-009 9.981156580000000e-001 -7.194141590000000e-009 9.981156580000000e-001 -7.194141590000000e-009 1.881826320000000e-003 1.189320090000000e-009
2.712270000000000e+001 1.881836500000000e-003 1.276896480000000e-009 9.981156580000000e-001 -7.768036669999999e-009 9.981156580000000e-001 -7.768036669999999e-009 1.881826320000000e-003 1.284194700000000e-009
2.928640000000000e+001 1.881836500000000e-003 1.378760270000000e-009 9.981156580000000e-001 -8.387728070000000e-009 9.981156580000000e-001 -8.387728070000000e-009 1.881826320000000e-003 1.386640890000000e-009
3.162280000000000e+001 1.881836500000000e-003 1.488754260000000e-009 9.981156580000000e-001 -9.056881210000000e-009 9.981156580000000e-001 -9.056881210000000e-009 1.881826320000000e-003 1.497263700000000e-009
3.414550000000000e+001 1.881836500000000e-003 1.607519370000000e-009 9.981156580000000e-001 -9.779391500000000e-009 9.981156580000000e-001 -9.779391500000000e-009 1.881826320000000e-003 1.616707410000000e-009
3.686950000000000e+001 1.881836500000000e-003 1.735761170000000e-009 9.981156580000000e-001 -1.055955420000000e-008 9.981156580000000e-001 -1.055955420000000e-008 1.881826320000000e-003 1.745682350000000e-009
3.981070000000000e+001 1.881836500000000e-003 1.874228410000000e-009 9.981156580000000e-001 -1.140192500000000e-008 9.981156580000000e-001 -1.140192500000000e-008 1.881826320000000e-003 1.884941480000000e-009
4.298660000000000e+001 1.881836500000000e-003 2.023744780000000e-009 9.981156580000000e-001 -1.231151340000000e-008 9.981156580000000e-001 -1.231151340000000e-008 1.881826320000000e-003 2.035312670000000e-009
4.641590000000000e+001 1.881836500000000e-003 2.185191500000000e-009 9.981156580000000e-001 -1.329367720000000e-008 9.981156580000000e-001 -1.329367720000000e-008 1.881826320000000e-003 2.197681980000000e-009
5.011870000000000e+001 1.881836500000000e-003 2.359513610000000e-009 9.981156580000000e-001 -1.435417210000000e-008 9.981156580000000e-001 -1.435417210000000e-008 1.881826320000000e-003 2.373000710000000e-009
5.411700000000000e+001 1.881836500000000e-003 2.547747900000000e-009 9.981156580000000e-001 -1.549929930000000e-008 9.981156580000000e-001 -1.549929930000000e-008 1.881826320000000e-003 2.562310470000000e-009
5.843410000000000e+001 1.881836500000000e-003 2.750990380000000e-009 9.981156580000000e-001 -1.673573190000000e-008 9.981156580000000e-001 -1.673573190000000e-008 1.881826320000000e-003 2.766714830000000e-009
6.309570000000000e+001 1.881836500000000e-003 2.970451500000000e-009 9.981156580000000e-001 -1.807083060000000e-008 9.981156580000000e-001 -1.807083060000000e-008 1.881826320000000e-003 2.987430830000000e-009
6.812920000000000e+001 1.881836500000000e-003 3.207421330000000e-009 9.981156580000000e-001 -1.951244240000000e-008 9.981156580000000e-001 -1.951244240000000e-008 1.881826320000000e-003 3.225754550000000e-009
7.356420000000000e+001 1.881836500000000e-003 3.463292960000000e-009 9.981156580000000e-001 -2.106904570000000e-008 9.981156580000000e-001 -2.106904570000000e-008 1.881826320000000e-003 3.483088710000000e-009
7.943280000000000e+001 1.881836500000000e-003 3.739577980000000e-009 9.981156580000000e-001 -2.274983370000000e-008 9.981156580000000e-001 -2.274983370000000e-008 1.881826320000000e-003 3.760953050000000e-009
8.576960000000000e+001 1.881836500000000e-003 4.037905010000000e-009 9.981156580000000e-001 -2.456471510000000e-008 9.981156580000000e-001 -2.456471510000000e-008 1.881826320000000e-003 4.060985270000000e-009
9.261190000000001e+001 1.881836500000000e-003 4.360030590000000e-009 9.981156580000000e-001 -2.652437420000000e-008 9.981156580000000e-001 -2.652437420000000e-008 1.881826320000000e-003 4.384951540000000e-009
1.000000000000000e+002 1.881836500000000e-003 4.707850970000000e-009 9.981156580000000e-001 -2.864035170000000e-008 9.981156580000000e-001 -2.864035170000000e-008 1.881826320000000e-003 4.734760440000000e-009
1.079780000000000e+002 1.881836500000000e-003 5.083443310000000e-009 9.981156580000000e-001 -3.092527940000000e-008 9.981156580000000e-001 -3.092527940000000e-008 1.881826320000000e-003 5.112500060000000e-009
1.165910000000000e+002 1.881836500000000e-003 5.488930700000000e-009 9.981156580000000e-001 -3.339207290000000e-008 9.981156580000000e-001 -3.339207290000000e-008 1.881826320000000e-003 5.520304710000000e-009
1.258930000000000e+002 1.881836500000000e-003 5.926854780000000e-009 9.981156580000000e-001 -3.605619820000000e-008 9.981156580000000e-001 -3.605619820000000e-008 1.881826320000000e-003 5.960732350000000e-009
1.359360000000000e+002 1.881836500000000e-003 6.399664270000000e-009 9.981156580000000e-001 -3.893254890000000e-008 9.981156580000000e-001 -3.893254890000000e-008 1.881826320000000e-003 6.436243980000000e-009
1.467800000000000e+002 1.881836500000000e-003 6.910183480000000e-009 9.981156580000000e-001 -4.203830840000000e-008 9.981156580000000e-001 -4.203830840000000e-008 1.881826320000000e-003 6.949681860000000e-009
1.584890000000000e+002 1.881836500000000e-003 7.461426000000000e-009 9.981156580000000e-001 -4.539180730000000e-008 9.981156580000000e-001 -4.539180730000000e-008 1.881826320000000e-003 7.504074780000000e-009
1.711330000000000e+002 1.881836500000000e-003 8.056686620000000e-009 9.981156580000000e-001 -4.901309340000000e-008 9.981156580000000e-001 -4.901309340000000e-008 1.881826320000000e-003 8.102737950000000e-009
1.847850000000000e+002 1.881836500000000e-003 8.699402450000001e-009 9.981156580000000e-001 -5.292307460000000e-008 9.981156580000000e-001 -5.292307460000000e-008 1.881826320000000e-003 8.749127620000000e-009
1.995260000000000e+002 1.881836500000000e-003 9.393386960000000e-009 9.981156580000000e-001 -5.714494870000000e-008 9.981156580000000e-001 -5.714494870000000e-008 1.881826320000000e-003 9.447078430000000e-009
2.154430000000000e+002 1.881836500000000e-003 1.014273540000000e-008 9.981156580000000e-001 -6.170363339999999e-008 9.981156580000000e-001 -6.170363339999999e-008 1.881826320000000e-003 1.020071000000000e-008
2.326310000000000e+002 1.881836500000000e-003 1.095192100000000e-008 9.981156580000000e-001 -6.662633720000000e-008 9.981156580000000e-001 -6.662633720000000e-008 1.881826320000000e-003 1.101452070000000e-008
2.511890000000000e+002 1.881836500000000e-003 1.182560360000000e-008 9.981156580000000e-001 -7.194141330000000e-008 9.981156580000000e-001 -7.194141330000000e-008 1.881826320000000e-003 1.189319810000000e-008
2.712270000000000e+002 1.881836500000000e-003 1.276896270000000e-008 9.981156580000000e-001 -7.768036700000000e-008 9.981156580000000e-001 -7.768036700000000e-008 1.881826320000000e-003 1.284194920000000e-008
2.928640000000000e+002 1.881836500000000e-003 1.378760060000000e-008 9.981156580000000e-001 -8.387728039999999e-008 9.981156580000000e-001 -8.387728039999999e-008 1.881826320000000e-003 1.386640910000000e-008
3.162280000000000e+002 1.881836500000000e-003 1.488754290000000e-008 9.981156580000000e-001 -9.056881170000000e-008 9.981156580000000e-001 -9.056881170000000e-008 1.881826320000000e-003 1.497263860000000e-008
3.414550000000000e+002 1.881836500000000e-003 1.607519210000000e-008 9.981156580000000e-001 -9.779391320000000e-008 9.981156580000000e-001 -9.779391320000000e-008 1.881826320000000e-003 1.616707680000000e-008
3.686950000000000e+002 1.881836500000000e-003 1.735761080000000e-008 9.981156580000000e-001 -1.055955450000000e-007 9.981156580000000e-001 -1.055955450000000e-007 1.881826320000000e-003 1.745682540000000e-008
3.981070000000000e+002 1.881836500000000e-003 1.874228380000000e-008 9.981156580000000e-001 -1.140192450000000e-007 9.981156580000000e-001 -1.140192450000000e-007 1.881826320000000e-003 1.884941310000000e-008
4.298660000000000e+002 1.881836500000000e-003 2.023745000000000e-008 9.981156580000000e-001 -1.231151340000000e-007 9.981156580000000e-001 -1.231151340000000e-007 1.881826320000000e-003 2.035312560000000e-008
4.641590000000000e+002 1.881836510000000e-003 2.185191320000000e-008 9.981156580000000e-001 -1.329367700000000e-007 9.981156580000000e-001 -1.329367700000000e-007 1.881826320000000e-003 2.197681680000000e-008
5.011870000000000e+002 1.881836510000000e-003 2.359513600000000e-008 9.981156580000000e-001 -1.435417190000000e-007 9.981156580000000e-001 -1.435417190000000e-007 1.881826320000000e-003 2.373000370000000e-008
5.411700000000000e+002 1.881836510000000e-003 2.547747550000000e-008 9.981156580000000e-001 -1.549929910000000e-007 9.981156580000000e-001 -1.549929910000000e-007 1.881826320000000e-003 2.562310260000000e-008
5.843410000000000e+002 1.881836510000000e-003 2.750990160000000e-008 9.981156580000000e-001 -1.673573170000000e-007 9.981156580000000e-001 -1.673573170000000e-007 1.881826320000000e-003 2.766714570000000e-008
6.309570000000000e+002 1.881836510000000e-003 2.970451280000000e-008 9.981156580000000e-001 -1.807083030000000e-007 9.981156580000000e-001 -1.807083030000000e-007 1.881826320000000e-003 2.987430120000000e-008
6.812920000000000e+002 1.881836510000000e-003 3.207420870000000e-008 9.981156580000000e-001 -1.951244230000000e-007 9.981156580000000e-001 -1.951244230000000e-007 1.881826330000000e-003 3.225754210000000e-008
7.356420000000001e+002 1.881836510000000e-003 3.463292480000000e-008 9.981156580000000e-001 -2.106904530000000e-007 9.981156580000000e-001 -2.106904530000000e-007 1.881826330000000e-003 3.483088360000000e-008
7.943280000000000e+002 1.881836510000000e-003 3.739577320000000e-008 9.981156580000000e-001 -2.274983290000000e-007 9.981156580000000e-001 -2.274983290000000e-007 1.881826330000000e-003 3.760952390000000e-008
8.576960000000000e+002 1.881836520000000e-003 4.037904250000000e-008 9.981156580000000e-001 -2.456471450000000e-007 9.981156580000000e-001 -2.456471450000000e-007 1.881826330000000e-003 4.060984580000000e-008
9.261190000000000e+002 1.881836520000000e-003 4.360029360000000e-008 9.981156580000000e-001 -2.652437310000000e-007 9.981156580000000e-001 -2.652437310000000e-007 1.881826330000000e-003 4.384950890000000e-008
1.000000000000000e+003 1.881836520000000e-003 4.707849860000000e-008 9.981156580000000e-001 -2.864035070000000e-007 9.981156580000000e-001 -2.864035070000000e-007 1.881826340000000e-003 4.734759530000000e-008
1.079780000000000e+003 1.881836530000000e-003 5.083441900000000e-008 9.981156580000000e-001 -3.092527770000000e-007 9.981156580000000e-001 -3.092527770000000e-007 1.881826340000000e-003 5.112498450000000e-008
1.165910000000000e+003 1.881836530000000e-003 5.488928730000000e-008 9.981156580000000e-001 -3.339207070000000e-007 9.981156580000000e-001 -3.339207070000000e-007 1.881826340000000e-003 5.520302960000000e-008
1.258930000000000e+003 1.881836530000000e-003 5.926852570000000e-008 9.981156580000000e-001 -3.605619580000000e-007 9.981156580000000e-001 -3.605619580000000e-007 1.881826350000000e-003 5.960729930000000e-008
1.359360000000000e+003 1.881836540000000e-003 6.399661410000000e-008 9.981156580000000e-001 -3.893254560000000e-007 9.981156580000000e-001 -3.893254560000000e-007 1.881826350000000e-003 6.436241360000000e-008
1.467800000000000e+003 1.881836550000000e-003 6.910180000000000e-008 9.981156580000000e-001 -4.203830460000000e-007 9.981156580000000e-001 -4.203830460000000e-007 1.881826360000000e-003 6.949678080000000e-008
1.584890000000000e+003 1.881836550000000e-003 7.461421320000000e-008 9.981156580000000e-001 -4.539180230000000e-007 9.981156580000000e-001 -4.539180230000000e-007 1.881826370000000e-003 7.504070260000001e-008
1.711330000000000e+003 1.881836560000000e-003 8.056680780000000e-008 9.981156580000000e-001 -4.901308710000000e-007 9.981156580000000e-001 -4.901308710000000e-007 1.881826370000000e-003 8.102732180000000e-008
1.847850000000000e+003 1.881836570000000e-003 8.699395080000000e-008 9.981156580000000e-001 -5.292306630000000e-007 9.981156580000000e-001 -5.292306630000000e-007 1.881826380000000e-003 8.749120250000001e-008
1.995260000000000e+003 1.881836580000000e-003 9.393377460000000e-008 9.981156580000000e-001 -5.714493850000000e-007 9.981156580000000e-001 -5.714493850000000e-007 1.881826400000000e-003 9.447069410000000e-008
2.154430000000000e+003 1.881836600000000e-003 1.014272360000000e-007 9.981156580000000e-001 -6.170362060000000e-007 9.981156580000000e-001 -6.170362060000000e-007 1.881826410000000e-003 1.020069890000000e-007
2.326310000000000e+003 1.881836610000000e-003 1.095190600000000e-007 9.981156580000000e-001 -6.662632100000000e-007 9.981156580000000e-001 -6.662632100000000e-007 1.881826430000000e-003 1.101450660000000e-007
2.511890000000000e+003 1.881836630000000e-003 1.182558510000000e-007 9.981156580000000e-001 -7.194139330000000e-007 9.981156580000000e-001 -7.194139330000000e-007 1.881826440000000e-003 1.189317970000000e-007
2.712270000000000e+003 1.881836650000000e-003 1.276893950000000e-007 9.981156580000000e-001 -7.768034180000000e-007 9.981156580000000e-001 -7.768034180000000e-007 1.881826460000000e-003 1.284192630000000e-007
2.928640000000000e+003 1.881836680000000e-003 1.378757110000000e-007 9.981156580000000e-001 -8.387724820000000e-007 9.981156580000000e-001 -8.387724820000000e-007 1.881826490000000e-003 1.386638050000000e-007
3.162280000000000e+003 1.881836710000000e-003 1.488750570000000e-007 9.981156580000000e-001 -9.056877160000000e-007 9.981156580000000e-001 -9.056877160000000e-007 1.881826520000000e-003 1.497260250000000e-007
3.414550000000000e+003 1.881836740000000e-003 1.607514550000000e-007 9.981156580000000e-001 -9.779386270000000e-007 9.981156580000000e-001 -9.779386270000000e-007 1.881826550000000e-003 1.616703110000000e-007
3.686950000000000e+003 1.881836780000000e-003 1.735755190000000e-007 9.981156580000000e-001 -1.055954810000000e-006 9.981156580000000e-001 -1.055954810000000e-006 1.881826590000000e-003 1.745676800000000e-007
3.981070000000000e+003 1.881836830000000e-003 1.874220960000000e-007 9.981156580000000e-001 -1.140191650000000e-006 9.981156580000000e-001 -1.140191650000000e-006 1.881826640000000e-003 1.884934080000000e-007
4.298660000000000e+003 1.881836880000000e-003 2.023735670000000e-007 9.981156570000000e-001 -1.231150330000000e-006 9.981156570000000e-001 -1.231150330000000e-006 1.881826690000000e-003 2.035303460000000e-007
4.641590000000000e+003 1.881836950000000e-003 2.185179560000000e-007 9.981156570000000e-001 -1.329366430000000e-006 9.981156570000000e-001 -1.329366430000000e-006 1.881826750000000e-003 2.197670240000000e-007
5.011870000000000e+003 1.881837020000000e-003 2.359498790000000e-007 9.981156570000000e-001 -1.435415590000000e-006 9.981156570000000e-001 -1.435415590000000e-006 1.881826820000000e-003 2.372985960000000e-007
5.411700000000000e+003 1.881837110000000e-003 2.547728930000000e-007 9.981156570000000e-001 -1.549927890000000e-006 9.981156570000000e-001 -1.549927890000000e-006 1.881826910000000e-003 2.562292140000000e-007
5.843410000000000e+003 1.881837210000000e-003 2.750966700000000e-007 9.981156570000000e-001 -1.673570630000000e-006 9.981156570000000e-001 -1.673570630000000e-006 1.881827010000000e-003 2.766691750000000e-007
6.309570000000000e+003 1.881837330000000e-003 2.970421750000000e-007 9.981156570000000e-001 -1.807079830000000e-006 9.981156570000000e-001 -1.807079830000000e-006 1.881827120000000e-003 2.987401390000000e-007
6.812920000000000e+003 1.881837460000000e-003 3.207383710000000e-007 9.981156570000000e-001 -1.951240200000000e-006 9.981156570000000e-001 -1.951240200000000e-006 1.881827250000000e-003 3.225718060000000e-007
