![Disclaimer] This software code/ model/ data and all associated documentation, comments
!    or other information (collectively "Software") is provided 
!    "AS IS" without warranty of any kind. MICRON TECHNOLOGY, INC. 
!    ("MTI") EXPRESSLY DISCLAIMS ALL WARRANTIES EXPRESS OR IMPLIED,
!    INCLUDING BUT NOT LIMITED TO, NONINFRINGEMENT OF THIRD PARTY
!    RIGHTS, AND ANY IMPLIED WARRANTIES OF MERCHANTABILITY OR FITNESS
!    FOR ANY PARTICULAR PURPOSE. MTI DOES NOT WARRANT THAT THE
!    SOFTWARE WILL MEET YOUR REQUIREMENTS, OR THAT THE OPERATION OF
!    THE SOFTWARE WILL BE UNINTERRUPTED OR ERROR-FREE. FURTHERMORE,
!    MTI DOES NOT MAKE ANY REPRESENTATIONS REGARDING THE USE OR THE
!    RESULTS OF THE USE OF THE SOFTWARE IN TERMS OF ITS CORRECTNESS,
!    ACCURACY, RELIABILITY, OR OTHERWISE. THE ENTIRE RISK ARISING OUT
!    OF USE OR PERFORMANCE OF THE SOFTWARE REMAINS WITH YOU. IN NO
!    EVENT SHALL MTI, ITS AFFILIATED COMPANIES OR THEIR SUPPLIERS BE
!    LIABLE FOR ANY DIRECT, INDIRECT, CONSEQUENTIAL, INCIDENTAL, OR
!    SPECIAL DAMAGES (INCLUDING, WITHOUT LIMITATION, DAMAGES FOR LOSS
!    OF PROFITS, BUSINESS INTERRUPTION, OR LOSS OF INFORMATION)
!    ARISING OUT OF YOUR USE OF OR INABILITY TO USE THE SOFTWARE,
!    EVEN IF MTI HAS BEEN ADVISED OF THE POSSIBILITY OF SUCH DAMAGES.
!    Because some jurisdictions prohibit the exclusion or limitation
!    of liability for consequential or incidental damages, the above
!    limitation may not apply to you.
!    Copyright 2019 Micron Technology, Inc. All rights reserved.

! Single-ended  S-parameters
!NUMBER OF PORTS = 2
!   PORT#     PORT_NAME  NET_NAME
! PORT1:  DM#.BGA.VDDQ_VSS DM#
! PORT2:  DM#.Z11B_DIE.VDDQ_VSS DM#

# HZ S  RI R 5.000000e+001
! 
1.000000000000000e+001 1.909406200000000e-003 7.106217280000000e-010 9.980881460000000e-001 -3.145166140000000e-009 9.980881460000000e-001 -3.145166140000000e-009 1.909397260000000e-003 7.135502190000000e-010
1.079780000000000e+001 1.909406200000000e-003 7.673154060000000e-010 9.980881460000000e-001 -3.396087480000000e-009 9.980881460000000e-001 -3.396087480000000e-009 1.909397260000000e-003 7.704769040000000e-010
1.165910000000000e+001 1.909406200000000e-003 8.285211410000000e-010 9.980881460000000e-001 -3.666980540000000e-009 9.980881460000000e-001 -3.666980540000000e-009 1.909397260000000e-003 8.319351870000000e-010
1.258930000000000e+001 1.909406200000000e-003 8.946231530000000e-010 9.980881460000000e-001 -3.959543690000000e-009 9.980881460000000e-001 -3.959543690000000e-009 1.909397260000000e-003 8.983094550000000e-010
1.359360000000000e+001 1.909406200000000e-003 9.659910930000000e-010 9.980881460000000e-001 -4.275413290000000e-009 9.980881460000000e-001 -4.275413290000000e-009 1.909397260000000e-003 9.699714090000000e-010
1.467800000000000e+001 1.909406200000000e-003 1.043050950000000e-009 9.980881460000000e-001 -4.616475010000000e-009 9.980881460000000e-001 -4.616475010000000e-009 1.909397260000000e-003 1.047348150000000e-009
1.584890000000000e+001 1.909406200000000e-003 1.126257730000000e-009 9.980881460000000e-001 -4.984742220000000e-009 9.980881460000000e-001 -4.984742220000000e-009 1.909397260000000e-003 1.130898100000000e-009
1.711330000000000e+001 1.909406200000000e-003 1.216108800000000e-009 9.980881460000000e-001 -5.382416910000000e-009 9.980881460000000e-001 -5.382416910000000e-009 1.909397260000000e-003 1.221118900000000e-009
1.847850000000000e+001 1.909406200000000e-003 1.313123000000000e-009 9.980881460000000e-001 -5.811795110000000e-009 9.980881460000000e-001 -5.811795110000000e-009 1.909397260000000e-003 1.318532810000000e-009
1.995260000000000e+001 1.909406200000000e-003 1.417875710000000e-009 9.980881460000000e-001 -6.275423800000000e-009 9.980881460000000e-001 -6.275423800000000e-009 1.909397260000000e-003 1.423717280000000e-009
2.154430000000000e+001 1.909406200000000e-003 1.530985340000000e-009 9.980881460000000e-001 -6.776039990000000e-009 9.980881460000000e-001 -6.776039990000000e-009 1.909397260000000e-003 1.537292850000000e-009
2.326310000000000e+001 1.909406200000000e-003 1.653127080000000e-009 9.980881460000000e-001 -7.316631230000000e-009 9.980881460000000e-001 -7.316631230000000e-009 1.909397260000000e-003 1.659938050000000e-009
2.511890000000000e+001 1.909406200000000e-003 1.785004120000000e-009 9.980881460000000e-001 -7.900311250000000e-009 9.980881460000000e-001 -7.900311250000000e-009 1.909397260000000e-003 1.792358820000000e-009
2.712270000000000e+001 1.909406200000000e-003 1.927398820000000e-009 9.980881460000000e-001 -8.530539440000000e-009 9.980881460000000e-001 -8.530539440000000e-009 1.909397260000000e-003 1.935339720000000e-009
2.928640000000000e+001 1.909406200000000e-003 2.081156050000000e-009 9.980881460000000e-001 -9.211059250000000e-009 9.980881460000000e-001 -9.211059250000000e-009 1.909397260000000e-003 2.089730640000000e-009
3.162280000000000e+001 1.909406200000000e-003 2.247185740000000e-009 9.980881460000000e-001 -9.945895749999999e-009 9.980881460000000e-001 -9.945895749999999e-009 1.909397260000000e-003 2.256444250000000e-009
3.414550000000000e+001 1.909406200000000e-003 2.426454320000000e-009 9.980881460000000e-001 -1.073932630000000e-008 9.980881460000000e-001 -1.073932630000000e-008 1.909397260000000e-003 2.436451490000000e-009
3.686950000000000e+001 1.909406200000000e-003 2.620027830000000e-009 9.980881460000000e-001 -1.159606940000000e-008 9.980881460000000e-001 -1.159606940000000e-008 1.909397260000000e-003 2.630822170000000e-009
3.981070000000000e+001 1.909406200000000e-003 2.829035810000000e-009 9.980881460000000e-001 -1.252112610000000e-008 9.980881460000000e-001 -1.252112610000000e-008 1.909397260000000e-003 2.840692180000000e-009
4.298660000000000e+001 1.909406200000000e-003 3.054722110000000e-009 9.980881460000000e-001 -1.351999910000000e-008 9.980881460000000e-001 -1.351999910000000e-008 1.909397260000000e-003 3.067308320000000e-009
4.641590000000000e+001 1.909406200000000e-003 3.298415960000000e-009 9.980881460000000e-001 -1.459857120000000e-008 9.980881460000000e-001 -1.459857120000000e-008 1.909397260000000e-003 3.312006340000000e-009
5.011870000000000e+001 1.909406200000000e-003 3.561544780000000e-009 9.980881460000000e-001 -1.576316310000000e-008 9.980881460000000e-001 -1.576316310000000e-008 1.909397260000000e-003 3.576219600000000e-009
5.411700000000000e+001 1.909406200000000e-003 3.845672970000000e-009 9.980881460000000e-001 -1.702069490000000e-008 9.980881460000000e-001 -1.702069490000000e-008 1.909397260000000e-003 3.861517580000000e-009
5.843410000000000e+001 1.909406200000000e-003 4.152455570000000e-009 9.980881460000000e-001 -1.837849420000000e-008 9.980881460000000e-001 -1.837849420000000e-008 1.909397260000000e-003 4.169564470000000e-009
6.309570000000000e+001 1.909406200000000e-003 4.483718870000000e-009 9.980881460000000e-001 -1.984464520000000e-008 9.980881460000000e-001 -1.984464520000000e-008 1.909397260000000e-003 4.502192980000000e-009
6.812920000000000e+001 1.909406200000000e-003 4.841410770000000e-009 9.980881460000000e-001 -2.142776430000000e-008 9.980881460000000e-001 -2.142776430000000e-008 1.909397260000000e-003 4.861357900000000e-009
7.356420000000000e+001 1.909406200000000e-003 5.227633690000000e-009 9.980881460000000e-001 -2.313716190000000e-008 9.980881460000000e-001 -2.313716190000000e-008 1.909397260000000e-003 5.249172600000000e-009
7.943280000000000e+001 1.909406200000000e-003 5.644669340000000e-009 9.980881460000000e-001 -2.498293440000000e-008 9.980881460000000e-001 -2.498293440000000e-008 1.909397260000000e-003 5.667926320000000e-009
8.576960000000000e+001 1.909406200000000e-003 6.094976330000000e-009 9.980881460000000e-001 -2.697596300000000e-008 9.980881460000000e-001 -2.697596300000000e-008 1.909397260000000e-003 6.120088520000000e-009
9.261190000000001e+001 1.909406200000000e-003 6.581205300000000e-009 9.980881460000000e-001 -2.912798020000000e-008 9.980881460000000e-001 -2.912798020000000e-008 1.909397260000000e-003 6.608320700000000e-009
1.000000000000000e+002 1.909406200000000e-003 7.106219780000000e-009 9.980881460000000e-001 -3.145166020000000e-008 9.980881460000000e-001 -3.145166020000000e-008 1.909397260000000e-003 7.135498440000000e-009
1.079780000000000e+002 1.909406200000000e-003 7.673154080000000e-009 9.980881460000000e-001 -3.396087360000000e-008 9.980881460000000e-001 -3.396087360000000e-008 1.909397260000000e-003 7.704768550000000e-009
1.165910000000000e+002 1.909406200000000e-003 8.285212770000000e-009 9.980881460000000e-001 -3.666980540000000e-008 9.980881460000000e-001 -3.666980540000000e-008 1.909397260000000e-003 8.319348990000001e-009
1.258930000000000e+002 1.909406200000000e-003 8.946233230000001e-009 9.980881460000000e-001 -3.959543850000000e-008 9.980881460000000e-001 -3.959543850000000e-008 1.909397260000000e-003 8.983093349999999e-009
1.359360000000000e+002 1.909406200000000e-003 9.659910900000000e-009 9.980881460000000e-001 -4.275412860000000e-008 9.980881460000000e-001 -4.275412860000000e-008 1.909397260000000e-003 9.699711119999999e-009
1.467800000000000e+002 1.909406200000000e-003 1.043050920000000e-008 9.980881460000000e-001 -4.616474670000000e-008 9.980881460000000e-001 -4.616474670000000e-008 1.909397260000000e-003 1.047348510000000e-008
1.584890000000000e+002 1.909406200000000e-003 1.126257660000000e-008 9.980881460000000e-001 -4.984742180000000e-008 9.980881460000000e-001 -4.984742180000000e-008 1.909397260000000e-003 1.130898050000000e-008
1.711330000000000e+002 1.909406200000000e-003 1.216108680000000e-008 9.980881460000000e-001 -5.382416930000000e-008 9.980881460000000e-001 -5.382416930000000e-008 1.909397260000000e-003 1.221119270000000e-008
1.847850000000000e+002 1.909406200000000e-003 1.313122800000000e-008 9.980881460000000e-001 -5.811795040000000e-008 9.980881460000000e-001 -5.811795040000000e-008 1.909397260000000e-003 1.318533140000000e-008
1.995260000000000e+002 1.909406200000000e-003 1.417875610000000e-008 9.980881460000000e-001 -6.275423939999999e-008 9.980881460000000e-001 -6.275423939999999e-008 1.909397260000000e-003 1.423717470000000e-008
2.154430000000000e+002 1.909406200000000e-003 1.530985300000000e-008 9.980881460000000e-001 -6.776040030000000e-008 9.980881460000000e-001 -6.776040030000000e-008 1.909397260000000e-003 1.537293160000000e-008
2.326310000000000e+002 1.909406200000000e-003 1.653127000000000e-008 9.980881460000000e-001 -7.316631150000000e-008 9.980881460000000e-001 -7.316631150000000e-008 1.909397260000000e-003 1.659938130000000e-008
2.511890000000000e+002 1.909406200000000e-003 1.785004190000000e-008 9.980881460000000e-001 -7.900311050000000e-008 9.980881460000000e-001 -7.900311050000000e-008 1.909397260000000e-003 1.792358770000000e-008
2.712270000000000e+002 1.909406200000000e-003 1.927398630000000e-008 9.980881460000000e-001 -8.530539390000000e-008 9.980881460000000e-001 -8.530539390000000e-008 1.909397270000000e-003 1.935339860000000e-008
2.928640000000000e+002 1.909406200000000e-003 2.081155910000000e-008 9.980881460000000e-001 -9.211058910000000e-008 9.980881460000000e-001 -9.211058910000000e-008 1.909397270000000e-003 2.089730590000000e-008
3.162280000000000e+002 1.909406200000000e-003 2.247185610000000e-008 9.980881460000000e-001 -9.945895520000000e-008 9.980881460000000e-001 -9.945895520000000e-008 1.909397270000000e-003 2.256444380000000e-008
3.414550000000000e+002 1.909406200000000e-003 2.426454190000000e-008 9.980881460000000e-001 -1.073932660000000e-007 9.980881460000000e-001 -1.073932660000000e-007 1.909397270000000e-003 2.436451660000000e-008
3.686950000000000e+002 1.909406200000000e-003 2.620027610000000e-008 9.980881460000000e-001 -1.159606970000000e-007 9.980881460000000e-001 -1.159606970000000e-007 1.909397270000000e-003 2.630822580000000e-008
3.981070000000000e+002 1.909406200000000e-003 2.829035730000000e-008 9.980881460000000e-001 -1.252112590000000e-007 9.980881460000000e-001 -1.252112590000000e-007 1.909397270000000e-003 2.840691810000000e-008
4.298660000000000e+002 1.909406200000000e-003 3.054722120000000e-008 9.980881460000000e-001 -1.351999920000000e-007 9.980881460000000e-001 -1.351999920000000e-007 1.909397270000000e-003 3.067308120000000e-008
4.641590000000000e+002 1.909406210000000e-003 3.298415680000000e-008 9.980881460000000e-001 -1.459857090000000e-007 9.980881460000000e-001 -1.459857090000000e-007 1.909397270000000e-003 3.312005720000000e-008
5.011870000000000e+002 1.909406210000000e-003 3.561544720000000e-008 9.980881460000000e-001 -1.576316300000000e-007 9.980881460000000e-001 -1.576316300000000e-007 1.909397270000000e-003 3.576218900000000e-008
5.411700000000000e+002 1.909406210000000e-003 3.845672660000000e-008 9.980881460000000e-001 -1.702069460000000e-007 9.980881460000000e-001 -1.702069460000000e-007 1.909397270000000e-003 3.861517510000000e-008
5.843410000000000e+002 1.909406210000000e-003 4.152455200000000e-008 9.980881460000000e-001 -1.837849420000000e-007 9.980881460000000e-001 -1.837849420000000e-007 1.909397270000000e-003 4.169564020000000e-008
6.309570000000000e+002 1.909406210000000e-003 4.483718640000000e-008 9.980881460000000e-001 -1.984464460000000e-007 9.980881460000000e-001 -1.984464460000000e-007 1.909397280000000e-003 4.502192340000000e-008
6.812920000000000e+002 1.909406210000000e-003 4.841410100000000e-008 9.980881460000000e-001 -2.142776380000000e-007 9.980881460000000e-001 -2.142776380000000e-007 1.909397280000000e-003 4.861357540000000e-008
7.356420000000001e+002 1.909406220000000e-003 5.227632960000000e-008 9.980881460000000e-001 -2.313716140000000e-007 9.980881460000000e-001 -2.313716140000000e-007 1.909397280000000e-003 5.249171720000000e-008
7.943280000000000e+002 1.909406220000000e-003 5.644668390000000e-008 9.980881460000000e-001 -2.498293330000000e-007 9.980881460000000e-001 -2.498293330000000e-007 1.909397280000000e-003 5.667925380000000e-008
8.576960000000000e+002 1.909406220000000e-003 6.094975070000000e-008 9.980881460000000e-001 -2.697596180000000e-007 9.980881460000000e-001 -2.697596180000000e-007 1.909397290000000e-003 6.120087460000000e-008
9.261190000000000e+002 1.909406230000000e-003 6.581203640000000e-008 9.980881460000000e-001 -2.912797840000000e-007 9.980881460000000e-001 -2.912797840000000e-007 1.909397290000000e-003 6.608319310000000e-008
1.000000000000000e+003 1.909406230000000e-003 7.106217860000000e-008 9.980881460000000e-001 -3.145165820000000e-007 9.980881460000000e-001 -3.145165820000000e-007 1.909397300000000e-003 7.135496760000000e-008
1.079780000000000e+003 1.909406240000000e-003 7.673151560000000e-008 9.980881460000000e-001 -3.396087110000000e-007 9.980881460000000e-001 -3.396087110000000e-007 1.909397300000000e-003 7.704766310000001e-008
1.165910000000000e+003 1.909406240000000e-003 8.285209650000000e-008 9.980881460000000e-001 -3.666980180000000e-007 9.980881460000000e-001 -3.666980180000000e-007 1.909397310000000e-003 8.319346170000001e-008
1.258930000000000e+003 1.909406250000000e-003 8.946229430000000e-008 9.980881460000000e-001 -3.959543450000000e-007 9.980881460000000e-001 -3.959543450000000e-007 1.909397310000000e-003 8.983089450000001e-008
1.359360000000000e+003 1.909406260000000e-003 9.659906060000001e-008 9.980881460000000e-001 -4.275412360000000e-007 9.980881460000000e-001 -4.275412360000000e-007 1.909397320000000e-003 9.699706620000000e-008
1.467800000000000e+003 1.909406270000000e-003 1.043050330000000e-007 9.980881460000000e-001 -4.616474030000000e-007 9.980881460000000e-001 -4.616474030000000e-007 1.909397330000000e-003 1.047347890000000e-007
1.584890000000000e+003 1.909406280000000e-003 1.126256900000000e-007 9.980881460000000e-001 -4.984741350000000e-007 9.980881460000000e-001 -4.984741350000000e-007 1.909397350000000e-003 1.130897290000000e-007
1.711330000000000e+003 1.909406300000000e-003 1.216107740000000e-007 9.980881460000000e-001 -5.382415940000000e-007 9.980881460000000e-001 -5.382415940000000e-007 1.909397360000000e-003 1.221118330000000e-007
1.847850000000000e+003 1.909406310000000e-003 1.313121600000000e-007 9.980881460000000e-001 -5.811793740000000e-007 9.980881460000000e-001 -5.811793740000000e-007 1.909397380000000e-003 1.318531920000000e-007
1.995260000000000e+003 1.909406330000000e-003 1.417874070000000e-007 9.980881450000000e-001 -6.275422320000000e-007 9.980881450000000e-001 -6.275422320000000e-007 1.909397390000000e-003 1.423715990000000e-007
2.154430000000000e+003 1.909406350000000e-003 1.530983370000000e-007 9.980881450000000e-001 -6.776037980000000e-007 9.980881450000000e-001 -6.776037980000000e-007 1.909397420000000e-003 1.537291340000000e-007
2.326310000000000e+003 1.909406380000000e-003 1.653124570000000e-007 9.980881450000000e-001 -7.316628580000000e-007 9.980881450000000e-001 -7.316628580000000e-007 1.909397440000000e-003 1.659935790000000e-007
2.511890000000000e+003 1.909406410000000e-003 1.785001160000000e-007 9.980881450000000e-001 -7.900307830000000e-007 9.980881450000000e-001 -7.900307830000000e-007 1.909397470000000e-003 1.792355760000000e-007
2.712270000000000e+003 1.909406450000000e-003 1.927394800000000e-007 9.980881450000000e-001 -8.530535360000001e-007 9.980881450000000e-001 -8.530535360000001e-007 1.909397500000000e-003 1.935336100000000e-007
2.928640000000000e+003 1.909406490000000e-003 2.081151070000000e-007 9.980881450000000e-001 -9.211053880000000e-007 9.980881450000000e-001 -9.211053880000000e-007 1.909397540000000e-003 2.089725910000000e-007
3.162280000000000e+003 1.909406530000000e-003 2.247179520000000e-007 9.980881450000000e-001 -9.945889130000001e-007 9.980881450000000e-001 -9.945889130000001e-007 1.909397590000000e-003 2.256438460000000e-007
3.414550000000000e+003 1.909406590000000e-003 2.426446540000000e-007 9.980881450000000e-001 -1.073931850000000e-006 9.980881450000000e-001 -1.073931850000000e-006 1.909397650000000e-003 2.436444130000000e-007
3.686950000000000e+003 1.909406660000000e-003 2.620017960000000e-007 9.980881450000000e-001 -1.159605960000000e-006 9.980881450000000e-001 -1.159605960000000e-006 1.909397710000000e-003 2.630813170000000e-007
3.981070000000000e+003 1.909406730000000e-003 2.829023570000000e-007 9.980881450000000e-001 -1.252111320000000e-006 9.980881450000000e-001 -1.252111320000000e-006 1.909397780000000e-003 2.840679990000000e-007
4.298660000000000e+003 1.909406820000000e-003 3.054706830000000e-007 9.980881450000000e-001 -1.351998310000000e-006 9.980881450000000e-001 -1.351998310000000e-006 1.909397870000000e-003 3.067293200000000e-007
4.641590000000000e+003 1.909406920000000e-003 3.298396420000000e-007 9.980881450000000e-001 -1.459855070000000e-006 9.980881450000000e-001 -1.459855070000000e-006 1.909397970000000e-003 3.311986950000000e-007
5.011870000000000e+003 1.909407040000000e-003 3.561520490000000e-007 9.980881450000000e-001 -1.576313750000000e-006 9.980881450000000e-001 -1.576313750000000e-006 1.909398090000000e-003 3.576195290000000e-007
5.411700000000000e+003 1.909407180000000e-003 3.845642140000000e-007 9.980881450000000e-001 -1.702066260000000e-006 9.980881450000000e-001 -1.702066260000000e-006 1.909398230000000e-003 3.861487760000000e-007
5.843410000000000e+003 1.909407350000000e-003 4.152416770000000e-007 9.980881440000000e-001 -1.837845380000000e-006 9.980881440000000e-001 -1.837845380000000e-006 1.909398390000000e-003 4.169526590000000e-007
6.309570000000000e+003 1.909407540000000e-003 4.483670260000000e-007 9.980881440000000e-001 -1.984459380000000e-006 9.980881440000000e-001 -1.984459380000000e-006 1.909398570000000e-003 4.502145200000000e-007
6.812920000000000e+003 1.909407760000000e-003 4.841349180000000e-007 9.980881440000000e-001 -2.142769990000000e-006 9.980881440000000e-001 -2.142769990000000e-006 1.909398790000000e-003 4.861298200000000e-007
