![Disclaimer] This software code/ model/ data and all associated documentation, comments
!    or other information (collectively "Software") is provided 
!    "AS IS" without warranty of any kind. MICRON TECHNOLOGY, INC. 
!    ("MTI") EXPRESSLY DISCLAIMS ALL WARRANTIES EXPRESS OR IMPLIED,
!    INCLUDING BUT NOT LIMITED TO, NONINFRINGEMENT OF THIRD PARTY
!    RIGHTS, AND ANY IMPLIED WARRANTIES OF MERCHANTABILITY OR FITNESS
!    FOR ANY PARTICULAR PURPOSE. MTI DOES NOT WARRANT THAT THE
!    SOFTWARE WILL MEET YOUR REQUIREMENTS, OR THAT THE OPERATION OF
!    THE SOFTWARE WILL BE UNINTERRUPTED OR ERROR-FREE. FURTHERMORE,
!    MTI DOES NOT MAKE ANY REPRESENTATIONS REGARDING THE USE OR THE
!    RESULTS OF THE USE OF THE SOFTWARE IN TERMS OF ITS CORRECTNESS,
!    ACCURACY, RELIABILITY, OR OTHERWISE. THE ENTIRE RISK ARISING OUT
!    OF USE OR PERFORMANCE OF THE SOFTWARE REMAINS WITH YOU. IN NO
!    EVENT SHALL MTI, ITS AFFILIATED COMPANIES OR THEIR SUPPLIERS BE
!    LIABLE FOR ANY DIRECT, INDIRECT, CONSEQUENTIAL, INCIDENTAL, OR
!    SPECIAL DAMAGES (INCLUDING, WITHOUT LIMITATION, DAMAGES FOR LOSS
!    OF PROFITS, BUSINESS INTERRUPTION, OR LOSS OF INFORMATION)
!    ARISING OUT OF YOUR USE OF OR INABILITY TO USE THE SOFTWARE,
!    EVEN IF MTI HAS BEEN ADVISED OF THE POSSIBILITY OF SUCH DAMAGES.
!    Because some jurisdictions prohibit the exclusion or limitation
!    of liability for consequential or incidental damages, the above
!    limitation may not apply to you.
!    Copyright 2019 Micron Technology, Inc. All rights reserved.

! Single-ended  S-parameters
!NUMBER OF PORTS = 2
!   PORT#     PORT_NAME  NET_NAME
! PORT1:  DQ2.BGA.VDDQ_VSS DQ2
! PORT2:  DQ2.Z11B_DIE.VDDQ_VSS DQ2

# HZ S  RI R 5.000000e+001
! 
1.000000000000000e+001 1.866840620000000e-003 6.403270550000000e-010 9.981306770000000e-001 -2.835039070000000e-009 9.981306770000000e-001 -2.835039070000000e-009 1.866831420000000e-003 6.463517780000000e-010
1.079780000000000e+001 1.866840620000000e-003 6.914124130000000e-010 9.981306770000000e-001 -3.061218480000000e-009 9.981306770000000e-001 -3.061218480000000e-009 1.866831420000000e-003 6.979174460000000e-010
1.165910000000000e+001 1.866840620000000e-003 7.465637690000000e-010 9.981306770000000e-001 -3.305399920000000e-009 9.981306770000000e-001 -3.305399920000000e-009 1.866831420000000e-003 7.535875260000000e-010
1.258930000000000e+001 1.866840620000000e-003 8.061271370000000e-010 9.981306770000000e-001 -3.569115650000000e-009 9.981306770000000e-001 -3.569115650000000e-009 1.866831420000000e-003 8.137114320000000e-010
1.359360000000000e+001 1.866840620000000e-003 8.704351550000000e-010 9.981306770000000e-001 -3.853838860000000e-009 9.981306770000000e-001 -3.853838860000000e-009 1.866831420000000e-003 8.786243680000000e-010
1.467800000000000e+001 1.866840620000000e-003 9.398723600000000e-010 9.981306770000000e-001 -4.161269910000000e-009 9.981306770000000e-001 -4.161269910000000e-009 1.866831420000000e-003 9.487146350000000e-010
1.584890000000000e+001 1.866840620000000e-003 1.014848010000000e-009 9.981306770000000e-001 -4.493224730000000e-009 9.981306770000000e-001 -4.493224730000000e-009 1.866831420000000e-003 1.024395980000000e-009
1.711330000000000e+001 1.866840620000000e-003 1.095810960000000e-009 9.981306770000000e-001 -4.851687160000000e-009 9.981306770000000e-001 -4.851687160000000e-009 1.866831420000000e-003 1.106120530000000e-009
1.847850000000000e+001 1.866840620000000e-003 1.183228490000000e-009 9.981306770000000e-001 -5.238726340000000e-009 9.981306770000000e-001 -5.238726340000000e-009 1.866831420000000e-003 1.194360280000000e-009
1.995260000000000e+001 1.866840620000000e-003 1.277619200000000e-009 9.981306770000000e-001 -5.656639720000000e-009 9.981306770000000e-001 -5.656639720000000e-009 1.866831420000000e-003 1.289638900000000e-009
2.154430000000000e+001 1.866840620000000e-003 1.379539980000000e-009 9.981306770000000e-001 -6.107892760000000e-009 9.981306770000000e-001 -6.107892760000000e-009 1.866831420000000e-003 1.392518820000000e-009
2.326310000000000e+001 1.866840620000000e-003 1.489599570000000e-009 9.981306770000000e-001 -6.595179230000000e-009 9.981306770000000e-001 -6.595179230000000e-009 1.866831420000000e-003 1.503613620000000e-009
2.511890000000000e+001 1.866840620000000e-003 1.608431290000000e-009 9.981306770000000e-001 -7.121306150000000e-009 9.981306770000000e-001 -7.121306150000000e-009 1.866831420000000e-003 1.623563920000000e-009
2.712270000000000e+001 1.866840620000000e-003 1.736740150000000e-009 9.981306770000000e-001 -7.689390450000000e-009 9.981306770000000e-001 -7.689390450000000e-009 1.866831420000000e-003 1.753079380000000e-009
2.928640000000000e+001 1.866840620000000e-003 1.875287660000000e-009 9.981306770000000e-001 -8.302808050000001e-009 9.981306770000000e-001 -8.302808050000001e-009 1.866831420000000e-003 1.892930620000000e-009
3.162280000000000e+001 1.866840620000000e-003 2.024893750000000e-009 9.981306770000000e-001 -8.965186780000000e-009 9.981306770000000e-001 -8.965186780000000e-009 1.866831420000000e-003 2.043944240000000e-009
3.414550000000000e+001 1.866840620000000e-003 2.186429120000000e-009 9.981306770000000e-001 -9.680381679999999e-009 9.981306770000000e-001 -9.680381679999999e-009 1.866831420000000e-003 2.206999170000000e-009
3.686950000000000e+001 1.866840620000000e-003 2.360854150000000e-009 9.981306770000000e-001 -1.045264640000000e-008 9.981306770000000e-001 -1.045264640000000e-008 1.866831420000000e-003 2.383065220000000e-009
3.981070000000000e+001 1.866840620000000e-003 2.549187190000000e-009 9.981306770000000e-001 -1.128648840000000e-008 9.981306770000000e-001 -1.128648840000000e-008 1.866831420000000e-003 2.573170540000000e-009
4.298660000000000e+001 1.866840620000000e-003 2.752548590000000e-009 9.981306770000000e-001 -1.218686830000000e-008 9.981306770000000e-001 -1.218686830000000e-008 1.866831420000000e-003 2.778445220000000e-009
4.641590000000000e+001 1.866840620000000e-003 2.972135980000000e-009 9.981306770000000e-001 -1.315908820000000e-008 9.981306770000000e-001 -1.315908820000000e-008 1.866831420000000e-003 3.000098610000000e-009
5.011870000000000e+001 1.866840620000000e-003 3.209236220000000e-009 9.981306770000000e-001 -1.420884640000000e-008 9.981306770000000e-001 -1.420884640000000e-008 1.866831420000000e-003 3.239429860000000e-009
5.411700000000000e+001 1.866840620000000e-003 3.465258370000000e-009 9.981306770000000e-001 -1.534238010000000e-008 9.981306770000000e-001 -1.534238010000000e-008 1.866831420000000e-003 3.497860030000000e-009
5.843410000000000e+001 1.866840620000000e-003 3.741694040000000e-009 9.981306770000000e-001 -1.656629450000000e-008 9.981306770000000e-001 -1.656629450000000e-008 1.866831420000000e-003 3.776896570000000e-009
6.309570000000000e+001 1.866840620000000e-003 4.040188710000000e-009 9.981306770000000e-001 -1.788787640000000e-008 9.981306770000000e-001 -1.788787640000000e-008 1.866831420000000e-003 4.078200060000000e-009
6.812920000000000e+001 1.866840620000000e-003 4.362497630000000e-009 9.981306770000000e-001 -1.931489320000000e-008 9.981306770000000e-001 -1.931489320000000e-008 1.866831420000000e-003 4.403540810000000e-009
7.356420000000000e+001 1.866840620000000e-003 4.710515230000000e-009 9.981306770000000e-001 -2.085573650000000e-008 9.981306770000000e-001 -2.085573650000000e-008 1.866831420000000e-003 4.754832690000000e-009
7.943280000000000e+001 1.866840620000000e-003 5.086297660000000e-009 9.981306770000000e-001 -2.251950760000000e-008 9.981306770000000e-001 -2.251950760000000e-008 1.866831420000000e-003 5.134150550000000e-009
8.576960000000000e+001 1.866840620000000e-003 5.492060260000000e-009 9.981306770000000e-001 -2.431601510000000e-008 9.981306770000000e-001 -2.431601510000000e-008 1.866831420000000e-003 5.543730590000000e-009
9.261190000000001e+001 1.866840620000000e-003 5.930191380000000e-009 9.981306770000000e-001 -2.625583390000000e-008 9.981306770000000e-001 -2.625583390000000e-008 1.866831420000000e-003 5.985983490000000e-009
1.000000000000000e+002 1.866840620000000e-003 6.403271500000000e-009 9.981306770000000e-001 -2.835038890000000e-008 9.981306770000000e-001 -2.835038890000000e-008 1.866831420000000e-003 6.463514420000000e-009
1.079780000000000e+002 1.866840620000000e-003 6.914124440000000e-009 9.981306770000000e-001 -3.061218290000000e-008 9.981306770000000e-001 -3.061218290000000e-008 1.866831420000000e-003 6.979173930000000e-009
1.165910000000000e+002 1.866840620000000e-003 7.465638220000001e-009 9.981306770000000e-001 -3.305400180000000e-008 9.981306770000000e-001 -3.305400180000000e-008 1.866831420000000e-003 7.535876170000000e-009
1.258930000000000e+002 1.866840620000000e-003 8.061270400000000e-009 9.981306770000000e-001 -3.569115480000000e-008 9.981306770000000e-001 -3.569115480000000e-008 1.866831420000000e-003 8.137112400000000e-009
1.359360000000000e+002 1.866840620000000e-003 8.704350960000000e-009 9.981306770000000e-001 -3.853838470000000e-008 9.981306770000000e-001 -3.853838470000000e-008 1.866831420000000e-003 8.786243260000001e-009
1.467800000000000e+002 1.866840620000000e-003 9.398721580000000e-009 9.981306770000000e-001 -4.161270060000000e-008 9.981306770000000e-001 -4.161270060000000e-008 1.866831420000000e-003 9.487146710000000e-009
1.584890000000000e+002 1.866840620000000e-003 1.014848090000000e-008 9.981306770000000e-001 -4.493224800000000e-008 9.981306770000000e-001 -4.493224800000000e-008 1.866831420000000e-003 1.024395960000000e-008
1.711330000000000e+002 1.866840620000000e-003 1.095811010000000e-008 9.981306770000000e-001 -4.851687090000000e-008 9.981306770000000e-001 -4.851687090000000e-008 1.866831420000000e-003 1.106120640000000e-008
1.847850000000000e+002 1.866840620000000e-003 1.183228510000000e-008 9.981306770000000e-001 -5.238726640000000e-008 9.981306770000000e-001 -5.238726640000000e-008 1.866831420000000e-003 1.194360540000000e-008
1.995260000000000e+002 1.866840620000000e-003 1.277619130000000e-008 9.981306770000000e-001 -5.656639690000000e-008 9.981306770000000e-001 -5.656639690000000e-008 1.866831420000000e-003 1.289639190000000e-008
2.154430000000000e+002 1.866840620000000e-003 1.379540000000000e-008 9.981306770000000e-001 -6.107892819999999e-008 9.981306770000000e-001 -6.107892819999999e-008 1.866831420000000e-003 1.392518930000000e-008
2.326310000000000e+002 1.866840620000000e-003 1.489599430000000e-008 9.981306770000000e-001 -6.595179320000000e-008 9.981306770000000e-001 -6.595179320000000e-008 1.866831420000000e-003 1.503613830000000e-008
2.511890000000000e+002 1.866840620000000e-003 1.608431310000000e-008 9.981306770000000e-001 -7.121305810000000e-008 9.981306770000000e-001 -7.121305810000000e-008 1.866831420000000e-003 1.623563780000000e-008
2.712270000000000e+002 1.866840620000000e-003 1.736740070000000e-008 9.981306770000000e-001 -7.689390910000000e-008 9.981306770000000e-001 -7.689390910000000e-008 1.866831420000000e-003 1.753079650000000e-008
2.928640000000000e+002 1.866840620000000e-003 1.875287650000000e-008 9.981306770000000e-001 -8.302808270000001e-008 9.981306770000000e-001 -8.302808270000001e-008 1.866831420000000e-003 1.892930700000000e-008
3.162280000000000e+002 1.866840620000000e-003 2.024893680000000e-008 9.981306770000000e-001 -8.965186750000000e-008 9.981306770000000e-001 -8.965186750000000e-008 1.866831420000000e-003 2.043944250000000e-008
3.414550000000000e+002 1.866840620000000e-003 2.186428980000000e-008 9.981306770000000e-001 -9.680381980000000e-008 9.981306770000000e-001 -9.680381980000000e-008 1.866831420000000e-003 2.206999340000000e-008
3.686950000000000e+002 1.866840620000000e-003 2.360854090000000e-008 9.981306770000000e-001 -1.045264660000000e-007 9.981306770000000e-001 -1.045264660000000e-007 1.866831420000000e-003 2.383065460000000e-008
3.981070000000000e+002 1.866840620000000e-003 2.549187090000000e-008 9.981306770000000e-001 -1.128648820000000e-007 9.981306770000000e-001 -1.128648820000000e-007 1.866831420000000e-003 2.573170320000000e-008
4.298660000000000e+002 1.866840620000000e-003 2.752548570000000e-008 9.981306770000000e-001 -1.218686820000000e-007 9.981306770000000e-001 -1.218686820000000e-007 1.866831420000000e-003 2.778445050000000e-008
4.641590000000000e+002 1.866840620000000e-003 2.972135930000000e-008 9.981306770000000e-001 -1.315908800000000e-007 9.981306770000000e-001 -1.315908800000000e-007 1.866831430000000e-003 3.000098340000000e-008
5.011870000000000e+002 1.866840620000000e-003 3.209236220000000e-008 9.981306770000000e-001 -1.420884620000000e-007 9.981306770000000e-001 -1.420884620000000e-007 1.866831430000000e-003 3.239429310000000e-008
5.411700000000000e+002 1.866840630000000e-003 3.465258180000000e-008 9.981306770000000e-001 -1.534237980000000e-007 9.981306770000000e-001 -1.534237980000000e-007 1.866831430000000e-003 3.497859980000000e-008
5.843410000000000e+002 1.866840630000000e-003 3.741693770000000e-008 9.981306770000000e-001 -1.656629440000000e-007 9.981306770000000e-001 -1.656629440000000e-007 1.866831430000000e-003 3.776896320000000e-008
6.309570000000000e+002 1.866840630000000e-003 4.040188590000000e-008 9.981306770000000e-001 -1.788787600000000e-007 9.981306770000000e-001 -1.788787600000000e-007 1.866831430000000e-003 4.078199460000000e-008
6.812920000000000e+002 1.866840630000000e-003 4.362497170000000e-008 9.981306770000000e-001 -1.931489270000000e-007 9.981306770000000e-001 -1.931489270000000e-007 1.866831430000000e-003 4.403540360000000e-008
7.356420000000001e+002 1.866840630000000e-003 4.710514880000000e-008 9.981306770000000e-001 -2.085573620000000e-007 9.981306770000000e-001 -2.085573620000000e-007 1.866831430000000e-003 4.754832280000000e-008
7.943280000000000e+002 1.866840630000000e-003 5.086297130000000e-008 9.981306770000000e-001 -2.251950700000000e-007 9.981306770000000e-001 -2.251950700000000e-007 1.866831430000000e-003 5.134149930000000e-008
8.576960000000000e+002 1.866840640000000e-003 5.492059450000000e-008 9.981306770000000e-001 -2.431601430000000e-007 9.981306770000000e-001 -2.431601430000000e-007 1.866831440000000e-003 5.543729780000000e-008
9.261190000000000e+002 1.866840640000000e-003 5.930190280000000e-008 9.981306770000000e-001 -2.625583270000000e-007 9.981306770000000e-001 -2.625583270000000e-007 1.866831440000000e-003 5.985982600000000e-008
1.000000000000000e+003 1.866840640000000e-003 6.403270120000001e-008 9.981306770000000e-001 -2.835038750000000e-007 9.981306770000000e-001 -2.835038750000000e-007 1.866831440000000e-003 6.463513280000000e-008
1.079780000000000e+003 1.866840650000000e-003 6.914122740000001e-008 9.981306770000000e-001 -3.061218110000000e-007 9.981306770000000e-001 -3.061218110000000e-007 1.866831450000000e-003 6.979172130000000e-008
1.165910000000000e+003 1.866840650000000e-003 7.465636080000000e-008 9.981306770000000e-001 -3.305399960000000e-007 9.981306770000000e-001 -3.305399960000000e-007 1.866831450000000e-003 7.535874179999999e-008
1.258930000000000e+003 1.866840660000000e-003 8.061267860000000e-008 9.981306770000000e-001 -3.569115220000000e-007 9.981306770000000e-001 -3.569115220000000e-007 1.866831460000000e-003 8.137109760000000e-008
1.359360000000000e+003 1.866840660000000e-003 8.704347700000000e-008 9.981306770000000e-001 -3.853838100000000e-007 9.981306770000000e-001 -3.853838100000000e-007 1.866831460000000e-003 8.786239850000000e-008
1.467800000000000e+003 1.866840670000000e-003 9.398717620000000e-008 9.981306770000000e-001 -4.161269620000000e-007 9.981306770000000e-001 -4.161269620000000e-007 1.866831470000000e-003 9.487142560000001e-008
1.584890000000000e+003 1.866840680000000e-003 1.014847560000000e-007 9.981306770000000e-001 -4.493224210000000e-007 9.981306770000000e-001 -4.493224210000000e-007 1.866831480000000e-003 1.024395440000000e-007
1.711330000000000e+003 1.866840690000000e-003 1.095810380000000e-007 9.981306770000000e-001 -4.851686370000000e-007 9.981306770000000e-001 -4.851686370000000e-007 1.866831490000000e-003 1.106119980000000e-007
1.847850000000000e+003 1.866840700000000e-003 1.183227670000000e-007 9.981306770000000e-001 -5.238725690000000e-007 9.981306770000000e-001 -5.238725690000000e-007 1.866831500000000e-003 1.194359710000000e-007
1.995260000000000e+003 1.866840710000000e-003 1.277618080000000e-007 9.981306770000000e-001 -5.656638530000000e-007 9.981306770000000e-001 -5.656638530000000e-007 1.866831510000000e-003 1.289638160000000e-007
2.154430000000000e+003 1.866840730000000e-003 1.379538680000000e-007 9.981306770000000e-001 -6.107891370000000e-007 9.981306770000000e-001 -6.107891370000000e-007 1.866831530000000e-003 1.392517660000000e-007
2.326310000000000e+003 1.866840740000000e-003 1.489597760000000e-007 9.981306770000000e-001 -6.595177480000000e-007 9.981306770000000e-001 -6.595177480000000e-007 1.866831540000000e-003 1.503612200000000e-007
2.511890000000000e+003 1.866840760000000e-003 1.608429240000000e-007 9.981306770000000e-001 -7.121303520000000e-007 9.981306770000000e-001 -7.121303520000000e-007 1.866831570000000e-003 1.623561680000000e-007
2.712270000000000e+003 1.866840790000000e-003 1.736737450000000e-007 9.981306770000000e-001 -7.689388010000000e-007 9.981306770000000e-001 -7.689388010000000e-007 1.866831590000000e-003 1.753077040000000e-007
2.928640000000000e+003 1.866840820000000e-003 1.875284350000000e-007 9.981306770000000e-001 -8.302804620000000e-007 9.981306770000000e-001 -8.302804620000000e-007 1.866831620000000e-003 1.892927430000000e-007
3.162280000000000e+003 1.866840850000000e-003 2.024889510000000e-007 9.981306770000000e-001 -8.965182150000000e-007 9.981306770000000e-001 -8.965182150000000e-007 1.866831650000000e-003 2.043940120000000e-007
3.414550000000000e+003 1.866840890000000e-003 2.186423760000000e-007 9.981306770000000e-001 -9.680376210000001e-007 9.981306770000000e-001 -9.680376210000001e-007 1.866831690000000e-003 2.206994120000000e-007
3.686950000000000e+003 1.866840930000000e-003 2.360847500000000e-007 9.981306770000000e-001 -1.045263930000000e-006 9.981306770000000e-001 -1.045263930000000e-006 1.866831730000000e-003 2.383058910000000e-007
3.981070000000000e+003 1.866840990000000e-003 2.549178790000000e-007 9.981306770000000e-001 -1.128647900000000e-006 9.981306770000000e-001 -1.128647900000000e-006 1.866831780000000e-003 2.573162090000000e-007
4.298660000000000e+003 1.866841050000000e-003 2.752538120000000e-007 9.981306770000000e-001 -1.218685660000000e-006 9.981306770000000e-001 -1.218685660000000e-006 1.866831840000000e-003 2.778434700000000e-007
4.641590000000000e+003 1.866841120000000e-003 2.972122770000000e-007 9.981306770000000e-001 -1.315907350000000e-006 9.981306770000000e-001 -1.315907350000000e-006 1.866831920000000e-003 3.000085300000000e-007
5.011870000000000e+003 1.866841200000000e-003 3.209219660000000e-007 9.981306770000000e-001 -1.420882790000000e-006 9.981306770000000e-001 -1.420882790000000e-006 1.866832000000000e-003 3.239412900000000e-007
5.411700000000000e+003 1.866841300000000e-003 3.465237330000000e-007 9.981306770000000e-001 -1.534235670000000e-006 9.981306770000000e-001 -1.534235670000000e-006 1.866832090000000e-003 3.497839310000000e-007
5.843410000000000e+003 1.866841410000000e-003 3.741667500000000e-007 9.981306770000000e-001 -1.656626540000000e-006 9.981306770000000e-001 -1.656626540000000e-006 1.866832200000000e-003 3.776870300000000e-007
6.309570000000000e+003 1.866841540000000e-003 4.040155540000000e-007 9.981306760000001e-001 -1.788783950000000e-006 9.981306760000001e-001 -1.788783950000000e-006 1.866832330000000e-003 4.078166680000000e-007
6.812920000000000e+003 1.866841690000000e-003 4.362455560000000e-007 9.981306760000001e-001 -1.931484680000000e-006 9.981306760000001e-001 -1.931484680000000e-006 1.866832490000000e-003 4.403499130000000e-007
