![Disclaimer] This software code/ model/ data and all associated documentation, comments
!    or other information (collectively "Software") is provided 
!    "AS IS" without warranty of any kind. MICRON TECHNOLOGY, INC. 
!    ("MTI") EXPRESSLY DISCLAIMS ALL WARRANTIES EXPRESS OR IMPLIED,
!    INCLUDING BUT NOT LIMITED TO, NONINFRINGEMENT OF THIRD PARTY
!    RIGHTS, AND ANY IMPLIED WARRANTIES OF MERCHANTABILITY OR FITNESS
!    FOR ANY PARTICULAR PURPOSE. MTI DOES NOT WARRANT THAT THE
!    SOFTWARE WILL MEET YOUR REQUIREMENTS, OR THAT THE OPERATION OF
!    THE SOFTWARE WILL BE UNINTERRUPTED OR ERROR-FREE. FURTHERMORE,
!    MTI DOES NOT MAKE ANY REPRESENTATIONS REGARDING THE USE OR THE
!    RESULTS OF THE USE OF THE SOFTWARE IN TERMS OF ITS CORRECTNESS,
!    ACCURACY, RELIABILITY, OR OTHERWISE. THE ENTIRE RISK ARISING OUT
!    OF USE OR PERFORMANCE OF THE SOFTWARE REMAINS WITH YOU. IN NO
!    EVENT SHALL MTI, ITS AFFILIATED COMPANIES OR THEIR SUPPLIERS BE
!    LIABLE FOR ANY DIRECT, INDIRECT, CONSEQUENTIAL, INCIDENTAL, OR
!    SPECIAL DAMAGES (INCLUDING, WITHOUT LIMITATION, DAMAGES FOR LOSS
!    OF PROFITS, BUSINESS INTERRUPTION, OR LOSS OF INFORMATION)
!    ARISING OUT OF YOUR USE OF OR INABILITY TO USE THE SOFTWARE,
!    EVEN IF MTI HAS BEEN ADVISED OF THE POSSIBILITY OF SUCH DAMAGES.
!    Because some jurisdictions prohibit the exclusion or limitation
!    of liability for consequential or incidental damages, the above
!    limitation may not apply to you.
!    Copyright 2019 Micron Technology, Inc. All rights reserved.

! Single-ended  S-parameters
!NUMBER OF PORTS = 2
!   PORT#     PORT_NAME  NET_NAME
! PORT1:  DQ7.BGA.VDDQ_VSS DQ7
! PORT2:  DQ7.Z11B_DIE.VDDQ_VSS DQ7

# HZ S  RI R 5.000000e+001
! 
1.000000000000000e+001 1.867282600000000e-003 5.193301070000002e-010 9.981302270000000e-001 -2.909589640000000e-009 9.981302270000000e-001 -2.909589640000000e-009 1.867273230000000e-003 5.223293190000000e-010
1.079780000000000e+001 1.867282600000000e-003 5.607623810000000e-010 9.981302270000000e-001 -3.141717000000000e-009 9.981302270000000e-001 -3.141717000000000e-009 1.867273230000000e-003 5.640005130000002e-010
1.165910000000000e+001 1.867282600000000e-003 6.054923780000000e-010 9.981302270000000e-001 -3.392319470000000e-009 9.981302270000000e-001 -3.392319470000000e-009 1.867273230000000e-003 6.089885540000000e-010
1.258930000000000e+001 1.867282600000000e-003 6.538004580000001e-010 9.981302270000000e-001 -3.662969640000000e-009 9.981302270000000e-001 -3.662969640000000e-009 1.867273230000000e-003 6.575759100000000e-010
1.359360000000000e+001 1.867282600000000e-003 7.059567930000000e-010 9.981302270000000e-001 -3.955179940000000e-009 9.981302270000000e-001 -3.955179940000000e-009 1.867273230000000e-003 7.100334760000000e-010
1.467800000000000e+001 1.867282600000000e-003 7.622731060000000e-010 9.981302270000000e-001 -4.270695950000000e-009 9.981302270000000e-001 -4.270695950000000e-009 1.867273230000000e-003 7.666744740000000e-010
1.584890000000000e+001 1.867282600000000e-003 8.230812980000000e-010 9.981302270000000e-001 -4.611379460000000e-009 9.981302270000000e-001 -4.611379460000000e-009 1.867273230000000e-003 8.278341070000000e-010
1.711330000000000e+001 1.867282600000000e-003 8.887455490000000e-010 9.981302270000000e-001 -4.979267860000000e-009 9.981302270000000e-001 -4.979267860000000e-009 1.867273230000000e-003 8.938773330000001e-010
1.847850000000000e+001 1.867282600000000e-003 9.596443920000000e-010 9.981302270000000e-001 -5.376485120000000e-009 9.981302270000000e-001 -5.376485120000000e-009 1.867273230000000e-003 9.651856260000001e-010
1.995260000000000e+001 1.867282600000000e-003 1.036198850000000e-009 9.981302270000000e-001 -5.805387640000000e-009 9.981302270000000e-001 -5.805387640000000e-009 1.867273230000000e-003 1.042181980000000e-009
2.154430000000000e+001 1.867282600000000e-003 1.118860750000000e-009 9.981302270000000e-001 -6.268507160000000e-009 9.981302270000000e-001 -6.268507160000000e-009 1.867273230000000e-003 1.125321200000000e-009
2.326310000000000e+001 1.867282600000000e-003 1.208123160000000e-009 9.981302270000000e-001 -6.768607460000000e-009 9.981302270000000e-001 -6.768607460000000e-009 1.867273230000000e-003 1.215099220000000e-009
2.511890000000000e+001 1.867282600000000e-003 1.304500450000000e-009 9.981302270000000e-001 -7.308569060000000e-009 9.981302270000000e-001 -7.308569060000000e-009 1.867273230000000e-003 1.312033230000000e-009
2.712270000000000e+001 1.867282600000000e-003 1.408563880000000e-009 9.981302270000000e-001 -7.891592500000000e-009 9.981302270000000e-001 -7.891592500000000e-009 1.867273230000000e-003 1.416697040000000e-009
2.928640000000000e+001 1.867282600000000e-003 1.520931210000000e-009 9.981302270000000e-001 -8.521140660000000e-009 9.981302270000000e-001 -8.521140660000000e-009 1.867273230000000e-003 1.529713740000000e-009
3.162280000000000e+001 1.867282600000000e-003 1.642267630000000e-009 9.981302270000000e-001 -9.200937279999999e-009 9.981302270000000e-001 -9.200937279999999e-009 1.867273230000000e-003 1.651750820000000e-009
3.414550000000000e+001 1.867282600000000e-003 1.773279050000000e-009 9.981302270000000e-001 -9.934939260000000e-009 9.981302270000000e-001 -9.934939260000000e-009 1.867273230000000e-003 1.783518440000000e-009
3.686950000000000e+001 1.867282600000000e-003 1.914744720000000e-009 9.981302270000000e-001 -1.072751110000000e-008 9.981302270000000e-001 -1.072751110000000e-008 1.867273230000000e-003 1.925800770000000e-009
3.981070000000000e+001 1.867282600000000e-003 2.067489980000000e-009 9.981302270000000e-001 -1.158328040000000e-008 9.981302270000000e-001 -1.158328040000000e-008 1.867273230000000e-003 2.079428600000000e-009
4.298660000000000e+001 1.867282600000000e-003 2.232423970000000e-009 9.981302270000000e-001 -1.250733640000000e-008 9.981302270000000e-001 -1.250733640000000e-008 1.867273230000000e-003 2.245315180000000e-009
4.641590000000000e+001 1.867282600000000e-003 2.410518090000000e-009 9.981302270000000e-001 -1.350512250000000e-008 9.981302270000000e-001 -1.350512250000000e-008 1.867273230000000e-003 2.424437210000000e-009
5.011870000000000e+001 1.867282600000000e-003 2.602815490000000e-009 9.981302270000000e-001 -1.458248530000000e-008 9.981302270000000e-001 -1.458248530000000e-008 1.867273230000000e-003 2.617845500000000e-009
5.411700000000000e+001 1.867282600000000e-003 2.810459560000000e-009 9.981302270000000e-001 -1.574582610000000e-008 9.981302270000000e-001 -1.574582610000000e-008 1.867273230000000e-003 2.826687940000000e-009
5.843410000000000e+001 1.867282600000000e-003 3.034659440000000e-009 9.981302270000000e-001 -1.700192530000000e-008 9.981302270000000e-001 -1.700192530000000e-008 1.867273230000000e-003 3.052182780000000e-009
6.309570000000000e+001 1.867282600000000e-003 3.276750230000000e-009 9.981302270000000e-001 -1.835825980000000e-008 9.981302270000000e-001 -1.835825980000000e-008 1.867273230000000e-003 3.295671960000000e-009
6.812920000000000e+001 1.867282600000000e-003 3.538155210000000e-009 9.981302270000000e-001 -1.982280160000000e-008 9.981302270000000e-001 -1.982280160000000e-008 1.867273230000000e-003 3.558585730000000e-009
7.356420000000000e+001 1.867282600000000e-003 3.820411180000000e-009 9.981302270000000e-001 -2.140416320000000e-008 9.981302270000000e-001 -2.140416320000000e-008 1.867273230000000e-003 3.842471790000000e-009
7.943280000000000e+001 1.867282600000000e-003 4.125185420000000e-009 9.981302270000000e-001 -2.311168520000000e-008 9.981302270000000e-001 -2.311168520000000e-008 1.867273230000000e-003 4.149005830000000e-009
8.576960000000000e+001 1.867282600000000e-003 4.454274620000000e-009 9.981302270000000e-001 -2.495543390000000e-008 9.981302270000000e-001 -2.495543390000000e-008 1.867273230000000e-003 4.479995210000000e-009
9.261190000000001e+001 1.867282600000000e-003 4.809616070000000e-009 9.981302270000000e-001 -2.694626250000000e-008 9.981302270000000e-001 -2.694626250000000e-008 1.867273230000000e-003 4.837388350000000e-009
1.000000000000000e+002 1.867282600000000e-003 5.193302400000000e-009 9.981302270000000e-001 -2.909589660000000e-008 9.981302270000000e-001 -2.909589660000000e-008 1.867273230000000e-003 5.223290360000000e-009
1.079780000000000e+002 1.867282600000000e-003 5.607623870000000e-009 9.981302270000000e-001 -3.141716750000000e-008 9.981302270000000e-001 -3.141716750000000e-008 1.867273230000000e-003 5.640004710000000e-009
1.165910000000000e+002 1.867282600000000e-003 6.054923090000000e-009 9.981302270000000e-001 -3.392319670000000e-008 9.981302270000000e-001 -3.392319670000000e-008 1.867273230000000e-003 6.089886430000000e-009
1.258930000000000e+002 1.867282600000000e-003 6.538003920000000e-009 9.981302270000000e-001 -3.662969660000000e-008 9.981302270000000e-001 -3.662969660000000e-008 1.867273230000000e-003 6.575756940000000e-009
1.359360000000000e+002 1.867282600000000e-003 7.059567510000000e-009 9.981302270000000e-001 -3.955179800000000e-008 9.981302270000000e-001 -3.955179800000000e-008 1.867273230000000e-003 7.100332020000000e-009
1.467800000000000e+002 1.867282600000000e-003 7.622729030000001e-009 9.981302270000000e-001 -4.270695680000000e-008 9.981302270000000e-001 -4.270695680000000e-008 1.867273230000000e-003 7.666745790000000e-009
1.584890000000000e+002 1.867282600000000e-003 8.230812840000000e-009 9.981302270000000e-001 -4.611379560000000e-008 9.981302270000000e-001 -4.611379560000000e-008 1.867273230000000e-003 8.278340850000000e-009
1.711330000000000e+002 1.867282600000000e-003 8.887453750000000e-009 9.981302270000000e-001 -4.979268060000000e-008 9.981302270000000e-001 -4.979268060000000e-008 1.867273230000000e-003 8.938773940000000e-009
1.847850000000000e+002 1.867282600000000e-003 9.596443530000001e-009 9.981302270000000e-001 -5.376485260000000e-008 9.981302270000000e-001 -5.376485260000000e-008 1.867273230000000e-003 9.651857670000001e-009
1.995260000000000e+002 1.867282600000000e-003 1.036198820000000e-008 9.981302270000000e-001 -5.805387850000000e-008 9.981302270000000e-001 -5.805387850000000e-008 1.867273230000000e-003 1.042182240000000e-008
2.154430000000000e+002 1.867282600000000e-003 1.118860620000000e-008 9.981302270000000e-001 -6.268507200000001e-008 9.981302270000000e-001 -6.268507200000001e-008 1.867273230000000e-003 1.125321340000000e-008
2.326310000000000e+002 1.867282600000000e-003 1.208123100000000e-008 9.981302270000000e-001 -6.768607520000000e-008 9.981302270000000e-001 -6.768607520000000e-008 1.867273230000000e-003 1.215099240000000e-008
2.511890000000000e+002 1.867282600000000e-003 1.304500370000000e-008 9.981302270000000e-001 -7.308569130000000e-008 9.981302270000000e-001 -7.308569130000000e-008 1.867273230000000e-003 1.312033100000000e-008
2.712270000000000e+002 1.867282600000000e-003 1.408563780000000e-008 9.981302270000000e-001 -7.891592700000000e-008 9.981302270000000e-001 -7.891592700000000e-008 1.867273230000000e-003 1.416697390000000e-008
2.928640000000000e+002 1.867282600000000e-003 1.520931250000000e-008 9.981302270000000e-001 -8.521140610000001e-008 9.981302270000000e-001 -8.521140610000001e-008 1.867273230000000e-003 1.529713680000000e-008
3.162280000000000e+002 1.867282600000000e-003 1.642267560000000e-008 9.981302270000000e-001 -9.200937130000000e-008 9.981302270000000e-001 -9.200937130000000e-008 1.867273230000000e-003 1.651750640000000e-008
3.414550000000000e+002 1.867282600000000e-003 1.773278960000000e-008 9.981302270000000e-001 -9.934939300000000e-008 9.981302270000000e-001 -9.934939300000000e-008 1.867273230000000e-003 1.783518610000000e-008
3.686950000000000e+002 1.867282600000000e-003 1.914744510000000e-008 9.981302270000000e-001 -1.072751150000000e-007 9.981302270000000e-001 -1.072751150000000e-007 1.867273230000000e-003 1.925801000000000e-008
3.981070000000000e+002 1.867282600000000e-003 2.067489920000000e-008 9.981302270000000e-001 -1.158328000000000e-007 9.981302270000000e-001 -1.158328000000000e-007 1.867273230000000e-003 2.079428410000000e-008
4.298660000000000e+002 1.867282600000000e-003 2.232423950000000e-008 9.981302270000000e-001 -1.250733650000000e-007 9.981302270000000e-001 -1.250733650000000e-007 1.867273230000000e-003 2.245314870000000e-008
4.641590000000000e+002 1.867282600000000e-003 2.410517860000000e-008 9.981302270000000e-001 -1.350512210000000e-007 9.981302270000000e-001 -1.350512210000000e-007 1.867273240000000e-003 2.424437130000000e-008
5.011870000000000e+002 1.867282600000000e-003 2.602815430000000e-008 9.981302270000000e-001 -1.458248490000000e-007 9.981302270000000e-001 -1.458248490000000e-007 1.867273240000000e-003 2.617845120000000e-008
5.411700000000000e+002 1.867282600000000e-003 2.810459190000000e-008 9.981302270000000e-001 -1.574582610000000e-007 9.981302270000000e-001 -1.574582610000000e-007 1.867273240000000e-003 2.826687880000000e-008
5.843410000000000e+002 1.867282610000000e-003 3.034659200000000e-008 9.981302270000000e-001 -1.700192500000000e-007 9.981302270000000e-001 -1.700192500000000e-007 1.867273240000000e-003 3.052182530000000e-008
6.309570000000000e+002 1.867282610000000e-003 3.276750110000000e-008 9.981302270000000e-001 -1.835825930000000e-007 9.981302270000000e-001 -1.835825930000000e-007 1.867273240000000e-003 3.295671360000000e-008
6.812920000000000e+002 1.867282610000000e-003 3.538154890000000e-008 9.981302270000000e-001 -1.982280110000000e-007 9.981302270000000e-001 -1.982280110000000e-007 1.867273240000000e-003 3.558585610000000e-008
7.356420000000001e+002 1.867282610000000e-003 3.820410770000000e-008 9.981302270000000e-001 -2.140416300000000e-007 9.981302270000000e-001 -2.140416300000000e-007 1.867273240000000e-003 3.842471340000000e-008
7.943280000000000e+002 1.867282610000000e-003 4.125184770000000e-008 9.981302270000000e-001 -2.311168460000000e-007 9.981302270000000e-001 -2.311168460000000e-007 1.867273240000000e-003 4.149005200000000e-008
8.576960000000000e+002 1.867282610000000e-003 4.454273770000000e-008 9.981302270000000e-001 -2.495543320000000e-007 9.981302270000000e-001 -2.495543320000000e-007 1.867273250000000e-003 4.479994560000000e-008
9.261190000000000e+002 1.867282620000000e-003 4.809614900000000e-008 9.981302270000000e-001 -2.694626150000000e-007 9.981302270000000e-001 -2.694626150000000e-007 1.867273250000000e-003 4.837387510000000e-008
1.000000000000000e+003 1.867282620000000e-003 5.193301010000000e-008 9.981302270000000e-001 -2.909589520000000e-007 9.981302270000000e-001 -2.909589520000000e-007 1.867273250000000e-003 5.223289210000000e-008
1.079780000000000e+003 1.867282620000000e-003 5.607622320000000e-008 9.981302270000000e-001 -3.141716550000000e-007 9.981302270000000e-001 -3.141716550000000e-007 1.867273260000000e-003 5.640003000000000e-008
1.165910000000000e+003 1.867282630000000e-003 6.054921020000001e-008 9.981302270000000e-001 -3.392319460000000e-007 9.981302270000000e-001 -3.392319460000000e-007 1.867273260000000e-003 6.089884550000000e-008
1.258930000000000e+003 1.867282630000000e-003 6.538001480000001e-008 9.981302270000000e-001 -3.662969430000000e-007 9.981302270000000e-001 -3.662969430000000e-007 1.867273270000000e-003 6.575754520000001e-008
1.359360000000000e+003 1.867282640000000e-003 7.059564150000000e-008 9.981302270000000e-001 -3.955179450000000e-007 9.981302270000000e-001 -3.955179450000000e-007 1.867273270000000e-003 7.100328920000000e-008
1.467800000000000e+003 1.867282650000000e-003 7.622725020000000e-008 9.981302270000000e-001 -4.270695260000000e-007 9.981302270000000e-001 -4.270695260000000e-007 1.867273280000000e-003 7.666741770000000e-008
1.584890000000000e+003 1.867282650000000e-003 8.230807750000000e-008 9.981302270000000e-001 -4.611379000000000e-007 9.981302270000000e-001 -4.611379000000000e-007 1.867273290000000e-003 8.278335800000000e-008
1.711330000000000e+003 1.867282660000000e-003 8.887447570000000e-008 9.981302270000000e-001 -4.979267380000000e-007 9.981302270000000e-001 -4.979267380000000e-007 1.867273290000000e-003 8.938767330000000e-008
1.847850000000000e+003 1.867282670000000e-003 9.596435520000001e-008 9.981302270000000e-001 -5.376484380000000e-007 9.981302270000000e-001 -5.376484380000000e-007 1.867273310000000e-003 9.651849350000000e-008
1.995260000000000e+003 1.867282690000000e-003 1.036197810000000e-007 9.981302270000000e-001 -5.805386760000000e-007 9.981302270000000e-001 -5.805386760000000e-007 1.867273320000000e-003 1.042181250000000e-007
2.154430000000000e+003 1.867282700000000e-003 1.118859340000000e-007 9.981302270000000e-001 -6.268505870000000e-007 9.981302270000000e-001 -6.268505870000000e-007 1.867273330000000e-003 1.125320110000000e-007
2.326310000000000e+003 1.867282720000000e-003 1.208121490000000e-007 9.981302270000000e-001 -6.768605780000000e-007 9.981302270000000e-001 -6.768605780000000e-007 1.867273350000000e-003 1.215097700000000e-007
2.511890000000000e+003 1.867282740000000e-003 1.304498370000000e-007 9.981302270000000e-001 -7.308566980000000e-007 9.981302270000000e-001 -7.308566980000000e-007 1.867273370000000e-003 1.312031120000000e-007
2.712270000000000e+003 1.867282760000000e-003 1.408561240000000e-007 9.981302270000000e-001 -7.891589990000000e-007 9.981302270000000e-001 -7.891589990000000e-007 1.867273390000000e-003 1.416694900000000e-007
2.928640000000000e+003 1.867282790000000e-003 1.520928060000000e-007 9.981302270000000e-001 -8.521137200000000e-007 9.981302270000000e-001 -8.521137200000000e-007 1.867273420000000e-003 1.529710590000000e-007
3.162280000000000e+003 1.867282820000000e-003 1.642263530000000e-007 9.981302270000000e-001 -9.200932830000000e-007 9.981302270000000e-001 -9.200932830000000e-007 1.867273450000000e-003 1.651746730000000e-007
3.414550000000000e+003 1.867282860000000e-003 1.773273920000000e-007 9.981302270000000e-001 -9.934933889999999e-007 9.981302270000000e-001 -9.934933889999999e-007 1.867273490000000e-003 1.783513660000000e-007
3.686950000000000e+003 1.867282900000000e-003 1.914738150000000e-007 9.981302270000000e-001 -1.072750470000000e-006 9.981302270000000e-001 -1.072750470000000e-006 1.867273530000000e-003 1.925794800000000e-007
3.981070000000000e+003 1.867282950000000e-003 2.067481890000000e-007 9.981302270000000e-001 -1.158327140000000e-006 9.981302270000000e-001 -1.158327140000000e-006 1.867273580000000e-003 2.079420600000000e-007
4.298660000000000e+003 1.867283010000000e-003 2.232413880000000e-007 9.981302270000000e-001 -1.250732580000000e-006 9.981302270000000e-001 -1.250732580000000e-006 1.867273630000000e-003 2.245305040000000e-007
4.641590000000000e+003 1.867283080000000e-003 2.410505150000000e-007 9.981302270000000e-001 -1.350510850000000e-006 9.981302270000000e-001 -1.350510850000000e-006 1.867273700000000e-003 2.424424770000000e-007
5.011870000000000e+003 1.867283160000000e-003 2.602799420000000e-007 9.981302270000000e-001 -1.458246780000000e-006 9.981302270000000e-001 -1.458246780000000e-006 1.867273780000000e-003 2.617829530000000e-007
5.411700000000000e+003 1.867283250000000e-003 2.810439040000000e-007 9.981302270000000e-001 -1.574580460000000e-006 9.981302270000000e-001 -1.574580460000000e-006 1.867273870000000e-003 2.826668280000000e-007
5.843410000000000e+003 1.867283360000000e-003 3.034633820000000e-007 9.981302260000000e-001 -1.700189790000000e-006 9.981302260000000e-001 -1.700189790000000e-006 1.867273980000000e-003 3.052157820000000e-007
6.309570000000000e+003 1.867283490000000e-003 3.276718170000000e-007 9.981302260000000e-001 -1.835822510000000e-006 9.981302260000000e-001 -1.835822510000000e-006 1.867274100000000e-003 3.295640270000000e-007
6.812920000000000e+003 1.867283640000000e-003 3.538114680000000e-007 9.981302260000000e-001 -1.982275810000000e-006 9.981302260000000e-001 -1.982275810000000e-006 1.867274240000000e-003 3.558546460000000e-007
