![Disclaimer] This software code/ model/ data and all associated documentation, comments
!    or other information (collectively "Software") is provided 
!    "AS IS" without warranty of any kind. MICRON TECHNOLOGY, INC. 
!    ("MTI") EXPRESSLY DISCLAIMS ALL WARRANTIES EXPRESS OR IMPLIED,
!    INCLUDING BUT NOT LIMITED TO, NONINFRINGEMENT OF THIRD PARTY
!    RIGHTS, AND ANY IMPLIED WARRANTIES OF MERCHANTABILITY OR FITNESS
!    FOR ANY PARTICULAR PURPOSE. MTI DOES NOT WARRANT THAT THE
!    SOFTWARE WILL MEET YOUR REQUIREMENTS, OR THAT THE OPERATION OF
!    THE SOFTWARE WILL BE UNINTERRUPTED OR ERROR-FREE. FURTHERMORE,
!    MTI DOES NOT MAKE ANY REPRESENTATIONS REGARDING THE USE OR THE
!    RESULTS OF THE USE OF THE SOFTWARE IN TERMS OF ITS CORRECTNESS,
!    ACCURACY, RELIABILITY, OR OTHERWISE. THE ENTIRE RISK ARISING OUT
!    OF USE OR PERFORMANCE OF THE SOFTWARE REMAINS WITH YOU. IN NO
!    EVENT SHALL MTI, ITS AFFILIATED COMPANIES OR THEIR SUPPLIERS BE
!    LIABLE FOR ANY DIRECT, INDIRECT, CONSEQUENTIAL, INCIDENTAL, OR
!    SPECIAL DAMAGES (INCLUDING, WITHOUT LIMITATION, DAMAGES FOR LOSS
!    OF PROFITS, BUSINESS INTERRUPTION, OR LOSS OF INFORMATION)
!    ARISING OUT OF YOUR USE OF OR INABILITY TO USE THE SOFTWARE,
!    EVEN IF MTI HAS BEEN ADVISED OF THE POSSIBILITY OF SUCH DAMAGES.
!    Because some jurisdictions prohibit the exclusion or limitation
!    of liability for consequential or incidental damages, the above
!    limitation may not apply to you.
!    Copyright 2019 Micron Technology, Inc. All rights reserved.

! Single-ended  S-parameters
!NUMBER OF PORTS = 2
!   PORT#     PORT_NAME  NET_NAME
! PORT1:  DQ3.BGA.VDDQ_VSS DQ3
! PORT2:  DQ3.Z11B_DIE.VDDQ_VSS DQ3

# HZ S  RI R 5.000000e+001
! 
1.000000000000000e+001 1.857909510000000e-003 4.918995210000000e-010 9.981395840000000e-001 -2.904152350000000e-009 9.981395840000000e-001 -2.904152350000000e-009 1.857900270000000e-003 4.943624680000000e-010
1.079780000000000e+001 1.857909510000000e-003 5.311433240000000e-010 9.981395840000000e-001 -3.135845700000000e-009 9.981395840000000e-001 -3.135845700000000e-009 1.857900270000000e-003 5.338025020000000e-010
1.165910000000000e+001 1.857909510000000e-003 5.735106420000000e-010 9.981395840000000e-001 -3.385979980000000e-009 9.981395840000000e-001 -3.385979980000000e-009 1.857900270000000e-003 5.763816920000000e-010
1.258930000000000e+001 1.857909510000000e-003 6.192671930000000e-010 9.981395840000000e-001 -3.656124320000000e-009 9.981395840000000e-001 -3.656124320000000e-009 1.857900270000000e-003 6.223676300000000e-010
1.359360000000000e+001 1.857909510000000e-003 6.686688010000000e-010 9.981395840000000e-001 -3.947788340000000e-009 9.981395840000000e-001 -3.947788340000000e-009 1.857900270000000e-003 6.720162760000000e-010
1.467800000000000e+001 1.857909510000000e-003 7.220104790000000e-010 9.981395840000000e-001 -4.262714830000000e-009 9.981395840000000e-001 -4.262714830000000e-009 1.857900270000000e-003 7.256246440000000e-010
1.584890000000000e+001 1.857909510000000e-003 7.796068370000000e-010 9.981395840000000e-001 -4.602761510000000e-009 9.981395840000000e-001 -4.602761510000000e-009 1.857900270000000e-003 7.835097570000001e-010
1.711330000000000e+001 1.857909510000000e-003 8.418026280000000e-010 9.981395840000000e-001 -4.969962410000000e-009 9.981395840000000e-001 -4.969962410000000e-009 1.857900270000000e-003 8.460165620000000e-010
1.847850000000000e+001 1.857909510000000e-003 9.089568820000000e-010 9.981395840000000e-001 -5.366437430000000e-009 9.981395840000000e-001 -5.366437430000000e-009 1.857900270000000e-003 9.135068530000002e-010
1.995260000000000e+001 1.857909510000000e-003 9.814678100000001e-010 9.981395840000000e-001 -5.794538370000000e-009 9.981395840000000e-001 -5.794538370000000e-009 1.857900270000000e-003 9.863807830000001e-010
2.154430000000000e+001 1.857909510000000e-003 1.059763320000000e-009 9.981395840000000e-001 -6.256792530000000e-009 9.981395840000000e-001 -6.256792530000000e-009 1.857900270000000e-003 1.065068590000000e-009
2.326310000000000e+001 1.857909510000000e-003 1.144310940000000e-009 9.981395840000000e-001 -6.755958020000000e-009 9.981395840000000e-001 -6.755958020000000e-009 1.857900270000000e-003 1.150039480000000e-009
2.511890000000000e+001 1.857909510000000e-003 1.235597750000000e-009 9.981395840000000e-001 -7.294910810000000e-009 9.981395840000000e-001 -7.294910810000000e-009 1.857900270000000e-003 1.241783560000000e-009
2.712270000000000e+001 1.857909510000000e-003 1.334164710000000e-009 9.981395840000000e-001 -7.876844520000000e-009 9.981395840000000e-001 -7.876844520000000e-009 1.857900270000000e-003 1.340843410000000e-009
2.928640000000000e+001 1.857909510000000e-003 1.440597020000000e-009 9.981395840000000e-001 -8.505216020000000e-009 9.981395840000000e-001 -8.505216020000000e-009 1.857900270000000e-003 1.447808730000000e-009
3.162280000000000e+001 1.857909510000000e-003 1.555524430000000e-009 9.981395840000000e-001 -9.183742249999999e-009 9.981395840000000e-001 -9.183742249999999e-009 1.857900270000000e-003 1.563311560000000e-009
3.414550000000000e+001 1.857909510000000e-003 1.679616020000000e-009 9.981395840000000e-001 -9.916372640000000e-009 9.981395840000000e-001 -9.916372640000000e-009 1.857900270000000e-003 1.688024250000000e-009
3.686950000000000e+001 1.857909510000000e-003 1.813609470000000e-009 9.981395840000000e-001 -1.070746370000000e-008 9.981395840000000e-001 -1.070746370000000e-008 1.857900270000000e-003 1.822688390000000e-009
3.981070000000000e+001 1.857909510000000e-003 1.958286920000000e-009 9.981395840000000e-001 -1.156163310000000e-008 9.981395840000000e-001 -1.156163310000000e-008 1.857900270000000e-003 1.968090500000000e-009
4.298660000000000e+001 1.857909510000000e-003 2.114509220000000e-009 9.981395840000000e-001 -1.248396240000000e-008 9.981395840000000e-001 -1.248396240000000e-008 1.857900270000000e-003 2.125094850000000e-009
4.641590000000000e+001 1.857909510000000e-003 2.283196470000000e-009 9.981395840000000e-001 -1.347988360000000e-008 9.981395840000000e-001 -1.347988360000000e-008 1.857900270000000e-003 2.294626490000000e-009
5.011870000000000e+001 1.857909510000000e-003 2.465336910000000e-009 9.981395840000000e-001 -1.455523290000000e-008 9.981395840000000e-001 -1.455523290000000e-008 1.857900270000000e-003 2.477679170000000e-009
5.411700000000000e+001 1.857909510000000e-003 2.662013170000000e-009 9.981395840000000e-001 -1.571640000000000e-008 9.981395840000000e-001 -1.571640000000000e-008 1.857900270000000e-003 2.675339420000000e-009
5.843410000000000e+001 1.857909510000000e-003 2.874371130000000e-009 9.981395840000000e-001 -1.697015150000000e-008 9.981395840000000e-001 -1.697015150000000e-008 1.857900270000000e-003 2.888760760000000e-009
6.309570000000000e+001 1.857909510000000e-003 3.103675000000000e-009 9.981395840000000e-001 -1.832395130000000e-008 9.981395840000000e-001 -1.832395130000000e-008 1.857900270000000e-003 3.119212830000000e-009
6.812920000000000e+001 1.857909510000000e-003 3.351272870000000e-009 9.981395840000000e-001 -1.978575610000000e-008 9.981395840000000e-001 -1.978575610000000e-008 1.857900270000000e-003 3.368049670000000e-009
7.356420000000000e+001 1.857909510000000e-003 3.618620330000000e-009 9.981395840000000e-001 -2.136416280000000e-008 9.981395840000000e-001 -2.136416280000000e-008 1.857900270000000e-003 3.636735550000000e-009
7.943280000000000e+001 1.857909510000000e-003 3.907296390000000e-009 9.981395840000000e-001 -2.306849350000000e-008 9.981395840000000e-001 -2.306849350000000e-008 1.857900270000000e-003 3.926857090000000e-009
8.576960000000000e+001 1.857909510000000e-003 4.219003470000000e-009 9.981395840000000e-001 -2.490879640000000e-008 9.981395840000000e-001 -2.490879640000000e-008 1.857900270000000e-003 4.240124310000000e-009
9.261190000000001e+001 1.857909510000000e-003 4.555576150000000e-009 9.981395840000000e-001 -2.689590460000000e-008 9.981395840000000e-001 -2.689590460000000e-008 1.857900270000000e-003 4.578381620000000e-009
1.000000000000000e+002 1.857909510000000e-003 4.918996460000000e-009 9.981395840000000e-001 -2.904152120000000e-008 9.981395840000000e-001 -2.904152120000000e-008 1.857900270000000e-003 4.943621400000000e-009
1.079780000000000e+002 1.857909510000000e-003 5.311433750000000e-009 9.981395840000000e-001 -3.135845400000000e-008 9.981395840000000e-001 -3.135845400000000e-008 1.857900270000000e-003 5.338023660000000e-009
1.165910000000000e+002 1.857909510000000e-003 5.735107040000000e-009 9.981395840000000e-001 -3.385980040000000e-008 9.981395840000000e-001 -3.385980040000000e-008 1.857900270000000e-003 5.763817650000000e-009
1.258930000000000e+002 1.857909510000000e-003 6.192672010000000e-009 9.981395840000000e-001 -3.656124260000000e-008 9.981395840000000e-001 -3.656124260000000e-008 1.857900270000000e-003 6.223673470000000e-009
1.359360000000000e+002 1.857909510000000e-003 6.686686840000000e-009 9.981395840000000e-001 -3.947788260000000e-008 9.981395840000000e-001 -3.947788260000000e-008 1.857900270000000e-003 6.720161230000000e-009
1.467800000000000e+002 1.857909510000000e-003 7.220102490000000e-009 9.981395840000000e-001 -4.262714500000000e-008 9.981395840000000e-001 -4.262714500000000e-008 1.857900270000000e-003 7.256247880000000e-009
1.584890000000000e+002 1.857909510000000e-003 7.796068070000000e-009 9.981395840000000e-001 -4.602761670000000e-008 9.981395840000000e-001 -4.602761670000000e-008 1.857900270000000e-003 7.835096319999999e-009
1.711330000000000e+002 1.857909510000000e-003 8.418025719999999e-009 9.981395840000000e-001 -4.969962650000000e-008 9.981395840000000e-001 -4.969962650000000e-008 1.857900270000000e-003 8.460167839999999e-009
1.847850000000000e+002 1.857909510000000e-003 9.089567270000001e-009 9.981395840000000e-001 -5.366437540000000e-008 9.981395840000000e-001 -5.366437540000000e-008 1.857900270000000e-003 9.135071120000000e-009
1.995260000000000e+002 1.857909510000000e-003 9.814676630000000e-009 9.981395840000000e-001 -5.794538580000000e-008 9.981395840000000e-001 -5.794538580000000e-008 1.857900270000000e-003 9.863810020000000e-009
2.154430000000000e+002 1.857909510000000e-003 1.059763340000000e-008 9.981395840000000e-001 -6.256792500000000e-008 9.981395840000000e-001 -6.256792500000000e-008 1.857900270000000e-003 1.065068600000000e-008
2.326310000000000e+002 1.857909510000000e-003 1.144311030000000e-008 9.981395840000000e-001 -6.755958170000000e-008 9.981395840000000e-001 -6.755958170000000e-008 1.857900270000000e-003 1.150039590000000e-008
2.511890000000000e+002 1.857909510000000e-003 1.235597730000000e-008 9.981395840000000e-001 -7.294910700000001e-008 9.981395840000000e-001 -7.294910700000001e-008 1.857900270000000e-003 1.241783350000000e-008
2.712270000000000e+002 1.857909510000000e-003 1.334164580000000e-008 9.981395840000000e-001 -7.876844710000000e-008 9.981395840000000e-001 -7.876844710000000e-008 1.857900270000000e-003 1.340843630000000e-008
2.928640000000000e+002 1.857909510000000e-003 1.440596920000000e-008 9.981395840000000e-001 -8.505216090000001e-008 9.981395840000000e-001 -8.505216090000001e-008 1.857900270000000e-003 1.447808760000000e-008
3.162280000000000e+002 1.857909510000000e-003 1.555524350000000e-008 9.981395840000000e-001 -9.183742150000000e-008 9.981395840000000e-001 -9.183742150000000e-008 1.857900270000000e-003 1.563311500000000e-008
3.414550000000000e+002 1.857909510000000e-003 1.679615830000000e-008 9.981395840000000e-001 -9.916372660000000e-008 9.981395840000000e-001 -9.916372660000000e-008 1.857900270000000e-003 1.688024260000000e-008
3.686950000000000e+002 1.857909510000000e-003 1.813609290000000e-008 9.981395840000000e-001 -1.070746370000000e-007 9.981395840000000e-001 -1.070746370000000e-007 1.857900270000000e-003 1.822688510000000e-008
3.981070000000000e+002 1.857909510000000e-003 1.958286790000000e-008 9.981395840000000e-001 -1.156163290000000e-007 9.981395840000000e-001 -1.156163290000000e-007 1.857900270000000e-003 1.968090240000000e-008
4.298660000000000e+002 1.857909510000000e-003 2.114509180000000e-008 9.981395840000000e-001 -1.248396250000000e-007 9.981395840000000e-001 -1.248396250000000e-007 1.857900270000000e-003 2.125094710000000e-008
4.641590000000000e+002 1.857909510000000e-003 2.283196300000000e-008 9.981395840000000e-001 -1.347988340000000e-007 9.981395840000000e-001 -1.347988340000000e-007 1.857900270000000e-003 2.294626310000000e-008
5.011870000000000e+002 1.857909510000000e-003 2.465336850000000e-008 9.981395840000000e-001 -1.455523280000000e-007 9.981395840000000e-001 -1.455523280000000e-007 1.857900270000000e-003 2.477678690000000e-008
5.411700000000000e+002 1.857909510000000e-003 2.662013040000000e-008 9.981395840000000e-001 -1.571639990000000e-007 9.981395840000000e-001 -1.571639990000000e-007 1.857900280000000e-003 2.675339500000000e-008
5.843410000000000e+002 1.857909510000000e-003 2.874371000000000e-008 9.981395840000000e-001 -1.697015140000000e-007 9.981395840000000e-001 -1.697015140000000e-007 1.857900280000000e-003 2.888760530000000e-008
6.309570000000000e+002 1.857909510000000e-003 3.103674860000000e-008 9.981395840000000e-001 -1.832395090000000e-007 9.981395840000000e-001 -1.832395090000000e-007 1.857900280000000e-003 3.119212310000000e-008
6.812920000000000e+002 1.857909520000000e-003 3.351272470000000e-008 9.981395840000000e-001 -1.978575580000000e-007 9.981395840000000e-001 -1.978575580000000e-007 1.857900280000000e-003 3.368049430000000e-008
7.356420000000001e+002 1.857909520000000e-003 3.618619830000000e-008 9.981395840000000e-001 -2.136416240000000e-007 9.981395840000000e-001 -2.136416240000000e-007 1.857900280000000e-003 3.636735150000000e-008
7.943280000000000e+002 1.857909520000000e-003 3.907295930000000e-008 9.981395840000000e-001 -2.306849300000000e-007 9.981395840000000e-001 -2.306849300000000e-007 1.857900280000000e-003 3.926856400000000e-008
8.576960000000000e+002 1.857909520000000e-003 4.219002710000000e-008 9.981395840000000e-001 -2.490879590000000e-007 9.981395840000000e-001 -2.490879590000000e-007 1.857900280000000e-003 4.240123670000000e-008
9.261190000000000e+002 1.857909520000000e-003 4.555575010000000e-008 9.981395840000000e-001 -2.689590370000000e-007 9.981395840000000e-001 -2.689590370000000e-007 1.857900290000000e-003 4.578380880000000e-008
1.000000000000000e+003 1.857909530000000e-003 4.918995130000000e-008 9.981395840000000e-001 -2.904152010000000e-007 9.981395840000000e-001 -2.904152010000000e-007 1.857900290000000e-003 4.943620370000000e-008
1.079780000000000e+003 1.857909530000000e-003 5.311432340000000e-008 9.981395840000000e-001 -3.135845230000000e-007 9.981395840000000e-001 -3.135845230000000e-007 1.857900290000000e-003 5.338022200000000e-008
1.165910000000000e+003 1.857909540000000e-003 5.735105100000000e-008 9.981395840000000e-001 -3.385979810000000e-007 9.981395840000000e-001 -3.385979810000000e-007 1.857900300000000e-003 5.763815880000000e-008
1.258930000000000e+003 1.857909540000000e-003 6.192669649999999e-008 9.981395840000000e-001 -3.656123990000000e-007 9.981395840000000e-001 -3.656123990000000e-007 1.857900300000000e-003 6.223671100000000e-008
1.359360000000000e+003 1.857909550000000e-003 6.686683810000000e-008 9.981395840000000e-001 -3.947787910000000e-007 9.981395840000000e-001 -3.947787910000000e-007 1.857900310000000e-003 6.720158400000000e-008
1.467800000000000e+003 1.857909550000000e-003 7.220099010000000e-008 9.981395840000000e-001 -4.262714090000000e-007 9.981395840000000e-001 -4.262714090000000e-007 1.857900310000000e-003 7.256243980000000e-008
1.584890000000000e+003 1.857909560000000e-003 7.796063290000000e-008 9.981395840000000e-001 -4.602761150000000e-007 9.981395840000000e-001 -4.602761150000000e-007 1.857900320000000e-003 7.835091630000000e-008
1.711330000000000e+003 1.857909570000000e-003 8.418019950000000e-008 9.981395840000000e-001 -4.969962010000000e-007 9.981395840000000e-001 -4.969962010000000e-007 1.857900330000000e-003 8.460161910000000e-008
1.847850000000000e+003 1.857909580000000e-003 9.089559750000000e-008 9.981395840000000e-001 -5.366436690000000e-007 9.981395840000000e-001 -5.366436690000000e-007 1.857900340000000e-003 9.135063650000000e-008
1.995260000000000e+003 1.857909590000000e-003 9.814667020000000e-008 9.981395840000000e-001 -5.794537540000000e-007 9.981395840000000e-001 -5.794537540000000e-007 1.857900350000000e-003 9.863800970000000e-008
2.154430000000000e+003 1.857909600000000e-003 1.059762120000000e-007 9.981395840000000e-001 -6.256791160000001e-007 9.981395840000000e-001 -6.256791160000001e-007 1.857900360000000e-003 1.065067480000000e-007
2.326310000000000e+003 1.857909620000000e-003 1.144309510000000e-007 9.981395840000000e-001 -6.755956480000000e-007 9.981395840000000e-001 -6.755956480000000e-007 1.857900380000000e-003 1.150038140000000e-007
2.511890000000000e+003 1.857909640000000e-003 1.235595860000000e-007 9.981395840000000e-001 -7.294908600000001e-007 9.981395840000000e-001 -7.294908600000001e-007 1.857900400000000e-003 1.241781490000000e-007
2.712270000000000e+003 1.857909660000000e-003 1.334162210000000e-007 9.981395840000000e-001 -7.876842060000000e-007 9.981395840000000e-001 -7.876842060000000e-007 1.857900420000000e-003 1.340841300000000e-007
2.928640000000000e+003 1.857909690000000e-003 1.440593910000000e-007 9.981395840000000e-001 -8.505212770000001e-007 9.981395840000000e-001 -8.505212770000001e-007 1.857900450000000e-003 1.447805830000000e-007
3.162280000000000e+003 1.857909720000000e-003 1.555520550000000e-007 9.981395840000000e-001 -9.183738010000000e-007 9.981395840000000e-001 -9.183738010000000e-007 1.857900470000000e-003 1.563307840000000e-007
3.414550000000000e+003 1.857909750000000e-003 1.679611080000000e-007 9.981395840000000e-001 -9.916367380000000e-007 9.981395840000000e-001 -9.916367380000000e-007 1.857900510000000e-003 1.688019620000000e-007
3.686950000000000e+003 1.857909790000000e-003 1.813603300000000e-007 9.981395840000000e-001 -1.070745700000000e-006 9.981395840000000e-001 -1.070745700000000e-006 1.857900550000000e-003 1.822682660000000e-007
3.981070000000000e+003 1.857909840000000e-003 1.958279250000000e-007 9.981395840000000e-001 -1.156162450000000e-006 9.981395840000000e-001 -1.156162450000000e-006 1.857900600000000e-003 1.968082930000000e-007
4.298660000000000e+003 1.857909900000000e-003 2.114499680000000e-007 9.981395840000000e-001 -1.248395200000000e-006 9.981395840000000e-001 -1.248395200000000e-006 1.857900650000000e-003 2.125085500000000e-007
4.641590000000000e+003 1.857909960000000e-003 2.283184340000000e-007 9.981395840000000e-001 -1.347987020000000e-006 9.981395840000000e-001 -1.347987020000000e-006 1.857900710000000e-003 2.294614700000000e-007
5.011870000000000e+003 1.857910040000000e-003 2.465321810000000e-007 9.981395840000000e-001 -1.455521620000000e-006 9.981395840000000e-001 -1.455521620000000e-006 1.857900790000000e-003 2.477664080000000e-007
5.411700000000000e+003 1.857910130000000e-003 2.661994100000000e-007 9.981395840000000e-001 -1.571637900000000e-006 9.981395840000000e-001 -1.571637900000000e-006 1.857900870000000e-003 2.675321080000000e-007
5.843410000000000e+003 1.857910230000000e-003 2.874347140000000e-007 9.981395830000001e-001 -1.697012500000000e-006 9.981395830000001e-001 -1.697012500000000e-006 1.857900970000000e-003 2.888737350000000e-007
6.309570000000000e+003 1.857910350000000e-003 3.103644830000000e-007 9.981395830000001e-001 -1.832391770000000e-006 9.981395830000001e-001 -1.832391770000000e-006 1.857901090000000e-003 3.119183150000000e-007
6.812920000000000e+003 1.857910490000000e-003 3.351234650000000e-007 9.981395830000001e-001 -1.978571400000000e-006 9.981395830000001e-001 -1.978571400000000e-006 1.857901220000000e-003 3.368012720000000e-007
