![Disclaimer] This software code/ model/ data and all associated documentation, comments
!    or other information (collectively "Software") is provided 
!    "AS IS" without warranty of any kind. MICRON TECHNOLOGY, INC. 
!    ("MTI") EXPRESSLY DISCLAIMS ALL WARRANTIES EXPRESS OR IMPLIED,
!    INCLUDING BUT NOT LIMITED TO, NONINFRINGEMENT OF THIRD PARTY
!    RIGHTS, AND ANY IMPLIED WARRANTIES OF MERCHANTABILITY OR FITNESS
!    FOR ANY PARTICULAR PURPOSE. MTI DOES NOT WARRANT THAT THE
!    SOFTWARE WILL MEET YOUR REQUIREMENTS, OR THAT THE OPERATION OF
!    THE SOFTWARE WILL BE UNINTERRUPTED OR ERROR-FREE. FURTHERMORE,
!    MTI DOES NOT MAKE ANY REPRESENTATIONS REGARDING THE USE OR THE
!    RESULTS OF THE USE OF THE SOFTWARE IN TERMS OF ITS CORRECTNESS,
!    ACCURACY, RELIABILITY, OR OTHERWISE. THE ENTIRE RISK ARISING OUT
!    OF USE OR PERFORMANCE OF THE SOFTWARE REMAINS WITH YOU. IN NO
!    EVENT SHALL MTI, ITS AFFILIATED COMPANIES OR THEIR SUPPLIERS BE
!    LIABLE FOR ANY DIRECT, INDIRECT, CONSEQUENTIAL, INCIDENTAL, OR
!    SPECIAL DAMAGES (INCLUDING, WITHOUT LIMITATION, DAMAGES FOR LOSS
!    OF PROFITS, BUSINESS INTERRUPTION, OR LOSS OF INFORMATION)
!    ARISING OUT OF YOUR USE OF OR INABILITY TO USE THE SOFTWARE,
!    EVEN IF MTI HAS BEEN ADVISED OF THE POSSIBILITY OF SUCH DAMAGES.
!    Because some jurisdictions prohibit the exclusion or limitation
!    of liability for consequential or incidental damages, the above
!    limitation may not apply to you.
!    Copyright 2019 Micron Technology, Inc. All rights reserved.

! Single-ended  S-parameters
!NUMBER OF PORTS = 2
!   PORT#     PORT_NAME  NET_NAME
! PORT1:  DQ1.BGA.VDDQ_VSS DQ1
! PORT2:  DQ1.Z11B_DIE.VDDQ_VSS DQ1

# HZ S  RI R 5.000000e+001
! 
1.000000000000000e+001 1.851713650000000e-003 5.548904950000000e-010 9.981457970000000e-001 -2.984731590000000e-009 9.981457970000000e-001 -2.984731590000000e-009 1.851703870000000e-003 5.592445670000000e-010
1.079780000000000e+001 1.851713650000000e-003 5.991597770000002e-010 9.981457970000000e-001 -3.222853290000000e-009 9.981457970000000e-001 -3.222853290000000e-009 1.851703870000000e-003 6.038607950000002e-010
1.165910000000000e+001 1.851713650000000e-003 6.469524780000000e-010 9.981457970000000e-001 -3.479928230000000e-009 9.981457970000000e-001 -3.479928230000000e-009 1.851703870000000e-003 6.520282090000000e-010
1.258930000000000e+001 1.851713650000000e-003 6.985683000000000e-010 9.981457970000000e-001 -3.757568150000000e-009 9.981457970000000e-001 -3.757568150000000e-009 1.851703870000000e-003 7.040495960000000e-010
1.359360000000000e+001 1.851713650000000e-003 7.542960980000000e-010 9.981457970000000e-001 -4.057324490000000e-009 9.981457970000000e-001 -4.057324490000000e-009 1.851703870000000e-003 7.602143640000000e-010
1.467800000000000e+001 1.851713650000000e-003 8.144685340000000e-010 9.981457970000000e-001 -4.380988850000000e-009 9.981457970000000e-001 -4.380988850000000e-009 1.851703870000000e-003 8.208585480000000e-010
1.584890000000000e+001 1.851713650000000e-003 8.794404930000000e-010 9.981457970000000e-001 -4.730471190000000e-009 9.981457970000000e-001 -4.730471190000000e-009 1.851703870000000e-003 8.863405840000000e-010
1.711330000000000e+001 1.851713650000000e-003 9.496009119999999e-010 9.981457970000000e-001 -5.107860430000000e-009 9.981457970000000e-001 -5.107860430000000e-009 1.851703870000000e-003 9.570511330000000e-010
1.847850000000000e+001 1.851713650000000e-003 1.025354590000000e-009 9.981457970000000e-001 -5.515335950000000e-009 9.981457970000000e-001 -5.515335950000000e-009 1.851703870000000e-003 1.033399090000000e-009
1.995260000000000e+001 1.851713650000000e-003 1.107151040000000e-009 9.981457970000000e-001 -5.955315540000000e-009 9.981457970000000e-001 -5.955315540000000e-009 1.851703870000000e-003 1.115837310000000e-009
2.154430000000000e+001 1.851713650000000e-003 1.195472940000000e-009 9.981457970000000e-001 -6.430394770000000e-009 9.981457970000000e-001 -6.430394770000000e-009 1.851703870000000e-003 1.204852270000000e-009
2.326310000000000e+001 1.851713650000000e-003 1.290847570000000e-009 9.981457970000000e-001 -6.943410340000000e-009 9.981457970000000e-001 -6.943410340000000e-009 1.851703870000000e-003 1.300975240000000e-009
2.511890000000000e+001 1.851713650000000e-003 1.393823970000000e-009 9.981457970000000e-001 -7.497317400000000e-009 9.981457970000000e-001 -7.497317400000000e-009 1.851703870000000e-003 1.404760090000000e-009
2.712270000000000e+001 1.851713650000000e-003 1.505013170000000e-009 9.981457970000000e-001 -8.095397549999999e-009 9.981457970000000e-001 -8.095397549999999e-009 1.851703870000000e-003 1.516821030000000e-009
2.928640000000000e+001 1.851713650000000e-003 1.625074870000000e-009 9.981457970000000e-001 -8.741203840000000e-009 9.981457970000000e-001 -8.741203840000000e-009 1.851703870000000e-003 1.637824930000000e-009
3.162280000000000e+001 1.851713650000000e-003 1.754719400000000e-009 9.981457970000000e-001 -9.438556559999999e-009 9.981457970000000e-001 -9.438556559999999e-009 1.851703870000000e-003 1.768486660000000e-009
3.414550000000000e+001 1.851713650000000e-003 1.894701630000000e-009 9.981457970000000e-001 -1.019151460000000e-008 9.981457970000000e-001 -1.019151460000000e-008 1.851703870000000e-003 1.909567120000000e-009
3.686950000000000e+001 1.851713650000000e-003 2.045853760000000e-009 9.981457970000000e-001 -1.100455550000000e-008 9.981457970000000e-001 -1.100455550000000e-008 1.851703870000000e-003 2.061905170000000e-009
3.981070000000000e+001 1.851713650000000e-003 2.209058170000000e-009 9.981457970000000e-001 -1.188242510000000e-008 9.981457970000000e-001 -1.188242510000000e-008 1.851703870000000e-003 2.226390350000000e-009
4.298660000000000e+001 1.851713650000000e-003 2.385285770000000e-009 9.981457970000000e-001 -1.283034550000000e-008 9.981457970000000e-001 -1.283034550000000e-008 1.851703870000000e-003 2.404000670000000e-009
4.641590000000000e+001 1.851713650000000e-003 2.575574590000000e-009 9.981457970000000e-001 -1.385389970000000e-008 9.981457970000000e-001 -1.385389970000000e-008 1.851703870000000e-003 2.595782480000000e-009
5.011870000000000e+001 1.851713650000000e-003 2.781039180000000e-009 9.981457970000000e-001 -1.495908620000000e-008 9.981457970000000e-001 -1.495908620000000e-008 1.851703870000000e-003 2.802859360000000e-009
5.411700000000000e+001 1.851713650000000e-003 3.002901290000000e-009 9.981457970000000e-001 -1.615247110000000e-008 9.981457970000000e-001 -1.615247110000000e-008 1.851703870000000e-003 3.026461720000000e-009
5.843410000000000e+001 1.851713650000000e-003 3.242453170000000e-009 9.981457970000000e-001 -1.744100960000000e-008 9.981457970000000e-001 -1.744100960000000e-008 1.851703870000000e-003 3.267893150000000e-009
6.309570000000000e+001 1.851713650000000e-003 3.501120820000000e-009 9.981457970000000e-001 -1.883237200000000e-008 9.981457970000000e-001 -1.883237200000000e-008 1.851703870000000e-003 3.528590610000000e-009
6.812920000000000e+001 1.851713650000000e-003 3.780425040000000e-009 9.981457970000000e-001 -2.033473640000000e-008 9.981457970000000e-001 -2.033473640000000e-008 1.851703870000000e-003 3.810085890000000e-009
7.356420000000000e+001 1.851713650000000e-003 4.082008150000000e-009 9.981457970000000e-001 -2.195693800000000e-008 9.981457970000000e-001 -2.195693800000000e-008 1.851703870000000e-003 4.114035220000000e-009
7.943280000000000e+001 1.851713650000000e-003 4.407651130000000e-009 9.981457970000000e-001 -2.370855720000000e-008 9.981457970000000e-001 -2.370855720000000e-008 1.851703870000000e-003 4.442233220000000e-009
8.576960000000000e+001 1.851713650000000e-003 4.759274210000000e-009 9.981457970000000e-001 -2.559992230000000e-008 9.981457970000000e-001 -2.559992230000000e-008 1.851703870000000e-003 4.796615080000000e-009
9.261190000000001e+001 1.851713650000000e-003 5.138947160000000e-009 9.981457970000000e-001 -2.764216510000000e-008 9.981457970000000e-001 -2.764216510000000e-008 1.851703870000000e-003 5.179266400000000e-009
1.000000000000000e+002 1.851713650000000e-003 5.548905780000000e-009 9.981457970000000e-001 -2.984731450000000e-008 9.981457970000000e-001 -2.984731450000000e-008 1.851703870000000e-003 5.592441900000000e-009
1.079780000000000e+002 1.851713650000000e-003 5.991597410000000e-009 9.981457970000000e-001 -3.222853330000000e-008 9.981457970000000e-001 -3.222853330000000e-008 1.851703870000000e-003 6.038606980000000e-009
1.165910000000000e+002 1.851713650000000e-003 6.469524680000000e-009 9.981457970000000e-001 -3.479928270000000e-008 9.981457970000000e-001 -3.479928270000000e-008 1.851703870000000e-003 6.520283790000000e-009
1.258930000000000e+002 1.851713650000000e-003 6.985683850000000e-009 9.981457970000000e-001 -3.757567960000000e-008 9.981457970000000e-001 -3.757567960000000e-008 1.851703870000000e-003 7.040493050000000e-009
1.359360000000000e+002 1.851713650000000e-003 7.542960489999999e-009 9.981457970000000e-001 -4.057324550000000e-008 9.981457970000000e-001 -4.057324550000000e-008 1.851703870000000e-003 7.602141719999999e-009
1.467800000000000e+002 1.851713650000000e-003 8.144683660000000e-009 9.981457970000000e-001 -4.380988780000000e-008 9.981457970000000e-001 -4.380988780000000e-008 1.851703870000000e-003 8.208586480000000e-009
1.584890000000000e+002 1.851713650000000e-003 8.794405070000000e-009 9.981457970000000e-001 -4.730471060000000e-008 9.981457970000000e-001 -4.730471060000000e-008 1.851703870000000e-003 8.863405260000001e-009
1.711330000000000e+002 1.851713650000000e-003 9.496008590000001e-009 9.981457970000000e-001 -5.107860460000000e-008 9.981457970000000e-001 -5.107860460000000e-008 1.851703870000000e-003 9.570513690000001e-009
1.847850000000000e+002 1.851713650000000e-003 1.025354540000000e-008 9.981457970000000e-001 -5.515336030000000e-008 9.981457970000000e-001 -5.515336030000000e-008 1.851703870000000e-003 1.033399400000000e-008
1.995260000000000e+002 1.851713650000000e-003 1.107150960000000e-008 9.981457970000000e-001 -5.955315280000000e-008 9.981457970000000e-001 -5.955315280000000e-008 1.851703870000000e-003 1.115837530000000e-008
2.154430000000000e+002 1.851713650000000e-003 1.195472890000000e-008 9.981457970000000e-001 -6.430394960000000e-008 9.981457970000000e-001 -6.430394960000000e-008 1.851703870000000e-003 1.204852420000000e-008
2.326310000000000e+002 1.851713650000000e-003 1.290847490000000e-008 9.981457970000000e-001 -6.943410630000000e-008 9.981457970000000e-001 -6.943410630000000e-008 1.851703870000000e-003 1.300975340000000e-008
2.511890000000000e+002 1.851713650000000e-003 1.393824040000000e-008 9.981457970000000e-001 -7.497317060000000e-008 9.981457970000000e-001 -7.497317060000000e-008 1.851703870000000e-003 1.404759910000000e-008
2.712270000000000e+002 1.851713650000000e-003 1.505013020000000e-008 9.981457970000000e-001 -8.095397550000000e-008 9.981457970000000e-001 -8.095397550000000e-008 1.851703870000000e-003 1.516821220000000e-008
2.928640000000000e+002 1.851713650000000e-003 1.625074690000000e-008 9.981457970000000e-001 -8.741203870000000e-008 9.981457970000000e-001 -8.741203870000000e-008 1.851703880000000e-003 1.637824890000000e-008
3.162280000000000e+002 1.851713650000000e-003 1.754719300000000e-008 9.981457970000000e-001 -9.438556530000000e-008 9.981457970000000e-001 -9.438556530000000e-008 1.851703880000000e-003 1.768486700000000e-008
3.414550000000000e+002 1.851713650000000e-003 1.894701520000000e-008 9.981457970000000e-001 -1.019151470000000e-007 9.981457970000000e-001 -1.019151470000000e-007 1.851703880000000e-003 1.909567230000000e-008
3.686950000000000e+002 1.851713650000000e-003 2.045853710000000e-008 9.981457970000000e-001 -1.100455560000000e-007 9.981457970000000e-001 -1.100455560000000e-007 1.851703880000000e-003 2.061905290000000e-008
3.981070000000000e+002 1.851713650000000e-003 2.209058120000000e-008 9.981457970000000e-001 -1.188242470000000e-007 9.981457970000000e-001 -1.188242470000000e-007 1.851703880000000e-003 2.226390190000000e-008
4.298660000000000e+002 1.851713650000000e-003 2.385285780000000e-008 9.981457970000000e-001 -1.283034560000000e-007 9.981457970000000e-001 -1.283034560000000e-007 1.851703880000000e-003 2.404000520000000e-008
4.641590000000000e+002 1.851713650000000e-003 2.575574360000000e-008 9.981457970000000e-001 -1.385389950000000e-007 9.981457970000000e-001 -1.385389950000000e-007 1.851703880000000e-003 2.595782110000000e-008
5.011870000000000e+002 1.851713650000000e-003 2.781039200000000e-008 9.981457970000000e-001 -1.495908580000000e-007 9.981457970000000e-001 -1.495908580000000e-007 1.851703880000000e-003 2.802859000000000e-008
5.411700000000000e+002 1.851713650000000e-003 3.002901050000000e-008 9.981457970000000e-001 -1.615247090000000e-007 9.981457970000000e-001 -1.615247090000000e-007 1.851703880000000e-003 3.026461570000000e-008
5.843410000000000e+002 1.851713660000000e-003 3.242452800000000e-008 9.981457970000000e-001 -1.744100930000000e-007 9.981457970000000e-001 -1.744100930000000e-007 1.851703880000000e-003 3.267892800000000e-008
6.309570000000000e+002 1.851713660000000e-003 3.501120490000000e-008 9.981457970000000e-001 -1.883237170000000e-007 9.981457970000000e-001 -1.883237170000000e-007 1.851703880000000e-003 3.528590000000000e-008
6.812920000000000e+002 1.851713660000000e-003 3.780424550000000e-008 9.981457970000000e-001 -2.033473610000000e-007 9.981457970000000e-001 -2.033473610000000e-007 1.851703890000000e-003 3.810085440000000e-008
7.356420000000001e+002 1.851713660000000e-003 4.082007450000000e-008 9.981457970000000e-001 -2.195693750000000e-007 9.981457970000000e-001 -2.195693750000000e-007 1.851703890000000e-003 4.114034530000000e-008
7.943280000000000e+002 1.851713660000000e-003 4.407650370000000e-008 9.981457970000000e-001 -2.370855680000000e-007 9.981457970000000e-001 -2.370855680000000e-007 1.851703890000000e-003 4.442232390000000e-008
8.576960000000000e+002 1.851713670000000e-003 4.759273190000000e-008 9.981457970000000e-001 -2.559992120000000e-007 9.981457970000000e-001 -2.559992120000000e-007 1.851703890000000e-003 4.796614060000000e-008
9.261190000000000e+002 1.851713670000000e-003 5.138945710000000e-008 9.981457970000000e-001 -2.764216370000000e-007 9.981457970000000e-001 -2.764216370000000e-007 1.851703900000000e-003 5.179265440000000e-008
1.000000000000000e+003 1.851713680000000e-003 5.548904060000000e-008 9.981457970000000e-001 -2.984731280000000e-007 9.981457970000000e-001 -2.984731280000000e-007 1.851703900000000e-003 5.592440320000000e-008
1.079780000000000e+003 1.851713680000000e-003 5.991595320000000e-008 9.981457970000000e-001 -3.222853110000000e-007 9.981457970000000e-001 -3.222853110000000e-007 1.851703910000000e-003 6.038604910000000e-008
1.165910000000000e+003 1.851713690000000e-003 6.469522050000000e-008 9.981457970000000e-001 -3.479927960000000e-007 9.981457970000000e-001 -3.479927960000000e-007 1.851703910000000e-003 6.520281360000000e-008
1.258930000000000e+003 1.851713690000000e-003 6.985680580000000e-008 9.981457970000000e-001 -3.757567610000000e-007 9.981457970000000e-001 -3.757567610000000e-007 1.851703920000000e-003 7.040489640000000e-008
1.359360000000000e+003 1.851713700000000e-003 7.542956310000001e-008 9.981457970000000e-001 -4.057324100000000e-007 9.981457970000000e-001 -4.057324100000000e-007 1.851703930000000e-003 7.602137730000001e-008
1.467800000000000e+003 1.851713710000000e-003 8.144678560000000e-008 9.981457970000000e-001 -4.380988260000000e-007 9.981457970000000e-001 -4.380988260000000e-007 1.851703930000000e-003 8.208581080000000e-008
1.584890000000000e+003 1.851713720000000e-003 8.794398570000000e-008 9.981457970000000e-001 -4.730470320000000e-007 9.981457970000000e-001 -4.730470320000000e-007 1.851703940000000e-003 8.863398750000001e-008
1.711330000000000e+003 1.851713730000000e-003 9.496000500000000e-008 9.981457970000000e-001 -5.107859580000000e-007 9.981457970000000e-001 -5.107859580000000e-007 1.851703960000000e-003 9.570505390000000e-008
1.847850000000000e+003 1.851713740000000e-003 1.025353500000000e-007 9.981457970000000e-001 -5.515334890000000e-007 9.981457970000000e-001 -5.515334890000000e-007 1.851703970000000e-003 1.033398340000000e-007
1.995260000000000e+003 1.851713760000000e-003 1.107149640000000e-007 9.981457970000000e-001 -5.955313860000000e-007 9.981457970000000e-001 -5.955313860000000e-007 1.851703990000000e-003 1.115836260000000e-007
2.154430000000000e+003 1.851713780000000e-003 1.195471230000000e-007 9.981457970000000e-001 -6.430393200000000e-007 9.981457970000000e-001 -6.430393200000000e-007 1.851704010000000e-003 1.204850820000000e-007
2.326310000000000e+003 1.851713800000000e-003 1.290845390000000e-007 9.981457970000000e-001 -6.943408370000000e-007 9.981457970000000e-001 -6.943408370000000e-007 1.851704030000000e-003 1.300973280000000e-007
2.511890000000000e+003 1.851713830000000e-003 1.393821440000000e-007 9.981457970000000e-001 -7.497314250000000e-007 9.981457970000000e-001 -7.497314250000000e-007 1.851704050000000e-003 1.404757280000000e-007
2.712270000000000e+003 1.851713860000000e-003 1.505009730000000e-007 9.981457970000000e-001 -8.095394010000000e-007 9.981457970000000e-001 -8.095394010000000e-007 1.851704080000000e-003 1.516817960000000e-007
2.928640000000000e+003 1.851713890000000e-003 1.625070550000000e-007 9.981457970000000e-001 -8.741199430000001e-007 9.981457970000000e-001 -8.741199430000001e-007 1.851704120000000e-003 1.637820770000000e-007
3.162280000000000e+003 1.851713930000000e-003 1.754714100000000e-007 9.981457970000000e-001 -9.438550920000000e-007 9.981457970000000e-001 -9.438550920000000e-007 1.851704160000000e-003 1.768481500000000e-007
3.414550000000000e+003 1.851713980000000e-003 1.894694980000000e-007 9.981457960000000e-001 -1.019150770000000e-006 9.981457960000000e-001 -1.019150770000000e-006 1.851704210000000e-003 1.909560680000000e-007
3.686950000000000e+003 1.851714040000000e-003 2.045845460000000e-007 9.981457960000000e-001 -1.100454670000000e-006 9.981457960000000e-001 -1.100454670000000e-006 1.851704260000000e-003 2.061897100000000e-007
3.981070000000000e+003 1.851714100000000e-003 2.209047720000000e-007 9.981457960000000e-001 -1.188241350000000e-006 9.981457960000000e-001 -1.188241350000000e-006 1.851704330000000e-003 2.226379850000000e-007
4.298660000000000e+003 1.851714180000000e-003 2.385272690000000e-007 9.981457960000000e-001 -1.283033150000000e-006 9.981457960000000e-001 -1.283033150000000e-006 1.851704400000000e-003 2.403987520000000e-007
4.641590000000000e+003 1.851714270000000e-003 2.575557900000000e-007 9.981457960000000e-001 -1.385388170000000e-006 9.981457960000000e-001 -1.385388170000000e-006 1.851704490000000e-003 2.595765730000000e-007
5.011870000000000e+003 1.851714370000000e-003 2.781018470000000e-007 9.981457960000000e-001 -1.495906350000000e-006 9.981457960000000e-001 -1.495906350000000e-006 1.851704590000000e-003 2.802838380000000e-007
5.411700000000000e+003 1.851714490000000e-003 3.002874940000000e-007 9.981457960000000e-001 -1.615244280000000e-006 9.981457960000000e-001 -1.615244280000000e-006 1.851704710000000e-003 3.026435600000000e-007
5.843410000000000e+003 1.851714630000000e-003 3.242419930000000e-007 9.981457960000000e-001 -1.744097390000000e-006 9.981457960000000e-001 -1.744097390000000e-006 1.851704850000000e-003 3.267860130000000e-007
6.309570000000000e+003 1.851714800000000e-003 3.501079120000000e-007 9.981457960000000e-001 -1.883232700000000e-006 9.981457960000000e-001 -1.883232700000000e-006 1.851705020000000e-003 3.528548850000000e-007
6.812920000000000e+003 1.851714990000000e-003 3.780372470000000e-007 9.981457950000000e-001 -2.033467990000000e-006 9.981457950000000e-001 -2.033467990000000e-006 1.851705210000000e-003 3.810033660000000e-007
