![Disclaimer] This software code/ model/ data and all associated documentation, comments
!    or other information (collectively "Software") is provided 
!    "AS IS" without warranty of any kind. MICRON TECHNOLOGY, INC. 
!    ("MTI") EXPRESSLY DISCLAIMS ALL WARRANTIES EXPRESS OR IMPLIED,
!    INCLUDING BUT NOT LIMITED TO, NONINFRINGEMENT OF THIRD PARTY
!    RIGHTS, AND ANY IMPLIED WARRANTIES OF MERCHANTABILITY OR FITNESS
!    FOR ANY PARTICULAR PURPOSE. MTI DOES NOT WARRANT THAT THE
!    SOFTWARE WILL MEET YOUR REQUIREMENTS, OR THAT THE OPERATION OF
!    THE SOFTWARE WILL BE UNINTERRUPTED OR ERROR-FREE. FURTHERMORE,
!    MTI DOES NOT MAKE ANY REPRESENTATIONS REGARDING THE USE OR THE
!    RESULTS OF THE USE OF THE SOFTWARE IN TERMS OF ITS CORRECTNESS,
!    ACCURACY, RELIABILITY, OR OTHERWISE. THE ENTIRE RISK ARISING OUT
!    OF USE OR PERFORMANCE OF THE SOFTWARE REMAINS WITH YOU. IN NO
!    EVENT SHALL MTI, ITS AFFILIATED COMPANIES OR THEIR SUPPLIERS BE
!    LIABLE FOR ANY DIRECT, INDIRECT, CONSEQUENTIAL, INCIDENTAL, OR
!    SPECIAL DAMAGES (INCLUDING, WITHOUT LIMITATION, DAMAGES FOR LOSS
!    OF PROFITS, BUSINESS INTERRUPTION, OR LOSS OF INFORMATION)
!    ARISING OUT OF YOUR USE OF OR INABILITY TO USE THE SOFTWARE,
!    EVEN IF MTI HAS BEEN ADVISED OF THE POSSIBILITY OF SUCH DAMAGES.
!    Because some jurisdictions prohibit the exclusion or limitation
!    of liability for consequential or incidental damages, the above
!    limitation may not apply to you.
!    Copyright 2019 Micron Technology, Inc. All rights reserved.

! Single-ended  S-parameters
!NUMBER OF PORTS = 2
!   PORT#     PORT_NAME  NET_NAME
! PORT1:  DQ5.BGA.VDDQ_VSS DQ5
! PORT2:  DQ5.Z11B_DIE.VDDQ_VSS DQ5

# HZ S  RI R 5.000000e+001
! 
1.000000000000000e+001 1.855901760000000e-003 5.567649190000000e-010 9.981416090000000e-001 -2.901254670000000e-009 9.981416090000000e-001 -2.901254670000000e-009 1.855891910000000e-003 5.596232090000000e-010
1.079780000000000e+001 1.855901760000000e-003 6.011836860000000e-010 9.981416090000000e-001 -3.132716870000000e-009 9.981416090000000e-001 -3.132716870000000e-009 1.855891910000000e-003 6.042697730000000e-010
1.165910000000000e+001 1.855901760000000e-003 6.491378750000000e-010 9.981416090000000e-001 -3.382601530000000e-009 9.981416090000000e-001 -3.382601530000000e-009 1.855891910000000e-003 6.524697730000000e-010
1.258930000000000e+001 1.855901760000000e-003 7.009281000000000e-010 9.981416090000000e-001 -3.652476210000000e-009 9.981416090000000e-001 -3.652476210000000e-009 1.855891910000000e-003 7.045264930000000e-010
1.359360000000000e+001 1.855901760000000e-003 7.568441150000000e-010 9.981416090000000e-001 -3.943849400000000e-009 9.981416090000000e-001 -3.943849400000000e-009 1.855891910000000e-003 7.607291460000000e-010
1.467800000000000e+001 1.855901760000000e-003 8.172197710000000e-010 9.981416090000000e-001 -4.258461160000000e-009 9.981416090000000e-001 -4.258461160000000e-009 1.855891910000000e-003 8.214144640000000e-010
1.584890000000000e+001 1.855901760000000e-003 8.824113660000000e-010 9.981416090000000e-001 -4.598168610000000e-009 9.981416090000000e-001 -4.598168610000000e-009 1.855891910000000e-003 8.869407710000000e-010
1.711330000000000e+001 1.855901760000000e-003 9.528086580000001e-010 9.981416090000000e-001 -4.965003550000000e-009 9.981416090000000e-001 -4.965003550000000e-009 1.855891910000000e-003 9.576992250000001e-010
1.847850000000000e+001 1.855901760000000e-003 1.028818180000000e-009 9.981416090000000e-001 -5.361082550000000e-009 9.981416090000000e-001 -5.361082550000000e-009 1.855891910000000e-003 1.034099060000000e-009
1.995260000000000e+001 1.855901760000000e-003 1.110891020000000e-009 9.981416090000000e-001 -5.788756570000000e-009 9.981416090000000e-001 -5.788756570000000e-009 1.855891910000000e-003 1.116593010000000e-009
2.154430000000000e+001 1.855901760000000e-003 1.199511280000000e-009 9.981416090000000e-001 -6.250549390000000e-009 9.981416090000000e-001 -6.250549390000000e-009 1.855891910000000e-003 1.205668450000000e-009
2.326310000000000e+001 1.855901760000000e-003 1.295207880000000e-009 9.981416090000000e-001 -6.749216760000000e-009 9.981416090000000e-001 -6.749216760000000e-009 1.855891910000000e-003 1.301856430000000e-009
2.511890000000000e+001 1.855901760000000e-003 1.398532440000000e-009 9.981416090000000e-001 -7.287631910000000e-009 9.981416090000000e-001 -7.287631910000000e-009 1.855891910000000e-003 1.405711490000000e-009
2.712270000000000e+001 1.855901760000000e-003 1.510096890000000e-009 9.981416090000000e-001 -7.868984580000000e-009 9.981416090000000e-001 -7.868984580000000e-009 1.855891910000000e-003 1.517848600000000e-009
2.928640000000000e+001 1.855901760000000e-003 1.630564190000000e-009 9.981416090000000e-001 -8.496729260000000e-009 9.981416090000000e-001 -8.496729260000000e-009 1.855891910000000e-003 1.638934070000000e-009
3.162280000000000e+001 1.855901760000000e-003 1.760646890000000e-009 9.981416090000000e-001 -9.174578370000000e-009 9.981416090000000e-001 -9.174578370000000e-009 1.855891910000000e-003 1.769684340000000e-009
3.414550000000000e+001 1.855901760000000e-003 1.901101880000000e-009 9.981416090000000e-001 -9.906477880000000e-009 9.981416090000000e-001 -9.906477880000000e-009 1.855891910000000e-003 1.910860470000000e-009
3.686950000000000e+001 1.855901760000000e-003 2.052764650000000e-009 9.981416090000000e-001 -1.069677920000000e-008 9.981416090000000e-001 -1.069677920000000e-008 1.855891910000000e-003 2.063301920000000e-009
3.981070000000000e+001 1.855901760000000e-003 2.216520330000000e-009 9.981416090000000e-001 -1.155009680000000e-008 9.981416090000000e-001 -1.155009680000000e-008 1.855891910000000e-003 2.227898120000000e-009
4.298660000000000e+001 1.855901760000000e-003 2.393343340000000e-009 9.981416090000000e-001 -1.247150590000000e-008 9.981416090000000e-001 -1.247150590000000e-008 1.855891910000000e-003 2.405628970000000e-009
4.641590000000000e+001 1.855901760000000e-003 2.584274760000000e-009 9.981416090000000e-001 -1.346643310000000e-008 9.981416090000000e-001 -1.346643310000000e-008 1.855891910000000e-003 2.597540490000000e-009
5.011870000000000e+001 1.855901760000000e-003 2.790433610000000e-009 9.981416090000000e-001 -1.454070950000000e-008 9.981416090000000e-001 -1.454070950000000e-008 1.855891910000000e-003 2.804757810000000e-009
5.411700000000000e+001 1.855901760000000e-003 3.013045060000000e-009 9.981416090000000e-001 -1.570071770000000e-008 9.981416090000000e-001 -1.570071770000000e-008 1.855891910000000e-003 3.028511550000000e-009
5.843410000000000e+001 1.855901760000000e-003 3.253405960000000e-009 9.981416090000000e-001 -1.695321820000000e-008 9.981416090000000e-001 -1.695321820000000e-008 1.855891910000000e-003 3.270106300000000e-009
6.309570000000000e+001 1.855901760000000e-003 3.512947510000000e-009 9.981416090000000e-001 -1.830566740000000e-008 9.981416090000000e-001 -1.830566740000000e-008 1.855891910000000e-003 3.530980590000000e-009
6.812920000000000e+001 1.855901760000000e-003 3.793195180000000e-009 9.981416090000000e-001 -1.976601390000000e-008 9.981416090000000e-001 -1.976601390000000e-008 1.855891910000000e-003 3.812666520000000e-009
7.356420000000000e+001 1.855901760000000e-003 4.095797020000000e-009 9.981416090000000e-001 -2.134284490000000e-008 9.981416090000000e-001 -2.134284490000000e-008 1.855891910000000e-003 4.116821380000000e-009
7.943280000000000e+001 1.855901760000000e-003 4.422540150000000e-009 9.981416090000000e-001 -2.304547540000000e-008 9.981416090000000e-001 -2.304547540000000e-008 1.855891910000000e-003 4.445241670000000e-009
8.576960000000000e+001 1.855901760000000e-003 4.775350960000000e-009 9.981416090000000e-001 -2.488394210000000e-008 9.981416090000000e-001 -2.488394210000000e-008 1.855891910000000e-003 4.799863810000000e-009
9.261190000000001e+001 1.855901760000000e-003 5.156306260000000e-009 9.981416090000000e-001 -2.686906750000000e-008 9.981416090000000e-001 -2.686906750000000e-008 1.855891910000000e-003 5.182774100000000e-009
1.000000000000000e+002 1.855901760000000e-003 5.567649790000000e-009 9.981416090000000e-001 -2.901254290000000e-008 9.981416090000000e-001 -2.901254290000000e-008 1.855891910000000e-003 5.596229340000000e-009
1.079780000000000e+002 1.855901760000000e-003 6.011836740000000e-009 9.981416090000000e-001 -3.132716410000000e-008 9.981416090000000e-001 -3.132716410000000e-008 1.855891910000000e-003 6.042696820000000e-009
1.165910000000000e+002 1.855901760000000e-003 6.491378660000000e-009 9.981416090000000e-001 -3.382601420000000e-008 9.981416090000000e-001 -3.382601420000000e-008 1.855891910000000e-003 6.524699890000000e-009
1.258930000000000e+002 1.855901760000000e-003 7.009281270000000e-009 9.981416090000000e-001 -3.652476120000000e-008 9.981416090000000e-001 -3.652476120000000e-008 1.855891910000000e-003 7.045261400000000e-009
1.359360000000000e+002 1.855901760000000e-003 7.568440280000000e-009 9.981416090000000e-001 -3.943849060000000e-008 9.981416090000000e-001 -3.943849060000000e-008 1.855891910000000e-003 7.607290800000000e-009
1.467800000000000e+002 1.855901760000000e-003 8.172196160000001e-009 9.981416090000000e-001 -4.258461050000000e-008 9.981416090000000e-001 -4.258461050000000e-008 1.855891910000000e-003 8.214145890000000e-009
1.584890000000000e+002 1.855901760000000e-003 8.824112360000000e-009 9.981416090000000e-001 -4.598168970000000e-008 9.981416090000000e-001 -4.598168970000000e-008 1.855891910000000e-003 8.869408430000001e-009
1.711330000000000e+002 1.855901760000000e-003 9.528085810000000e-009 9.981416090000000e-001 -4.965003510000000e-008 9.981416090000000e-001 -4.965003510000000e-008 1.855891910000000e-003 9.576995610000000e-009
1.847850000000000e+002 1.855901760000000e-003 1.028818150000000e-008 9.981416090000000e-001 -5.361082790000000e-008 9.981416090000000e-001 -5.361082790000000e-008 1.855891910000000e-003 1.034099310000000e-008
1.995260000000000e+002 1.855901760000000e-003 1.110890880000000e-008 9.981416090000000e-001 -5.788756670000000e-008 9.981416090000000e-001 -5.788756670000000e-008 1.855891910000000e-003 1.116593280000000e-008
2.154430000000000e+002 1.855901760000000e-003 1.199511150000000e-008 9.981416090000000e-001 -6.250549300000000e-008 9.981416090000000e-001 -6.250549300000000e-008 1.855891910000000e-003 1.205668470000000e-008
2.326310000000000e+002 1.855901760000000e-003 1.295207910000000e-008 9.981416090000000e-001 -6.749216900000000e-008 9.981416090000000e-001 -6.749216900000000e-008 1.855891910000000e-003 1.301856450000000e-008
2.511890000000000e+002 1.855901760000000e-003 1.398532330000000e-008 9.981416090000000e-001 -7.287631649999999e-008 9.981416090000000e-001 -7.287631649999999e-008 1.855891910000000e-003 1.405711310000000e-008
2.712270000000000e+002 1.855901760000000e-003 1.510096900000000e-008 9.981416090000000e-001 -7.868985000000000e-008 9.981416090000000e-001 -7.868985000000000e-008 1.855891910000000e-003 1.517848550000000e-008
2.928640000000000e+002 1.855901760000000e-003 1.630564130000000e-008 9.981416090000000e-001 -8.496729400000000e-008 9.981416090000000e-001 -8.496729400000000e-008 1.855891910000000e-003 1.638934140000000e-008
3.162280000000000e+002 1.855901760000000e-003 1.760646700000000e-008 9.981416090000000e-001 -9.174578440000000e-008 9.981416090000000e-001 -9.174578440000000e-008 1.855891910000000e-003 1.769684440000000e-008
3.414550000000000e+002 1.855901760000000e-003 1.901101750000000e-008 9.981416090000000e-001 -9.906477850000000e-008 9.981416090000000e-001 -9.906477850000000e-008 1.855891920000000e-003 1.910860530000000e-008
3.686950000000000e+002 1.855901760000000e-003 2.052764550000000e-008 9.981416090000000e-001 -1.069677950000000e-007 9.981416090000000e-001 -1.069677950000000e-007 1.855891920000000e-003 2.063301790000000e-008
3.981070000000000e+002 1.855901770000000e-003 2.216520240000000e-008 9.981416090000000e-001 -1.155009640000000e-007 9.981416090000000e-001 -1.155009640000000e-007 1.855891920000000e-003 2.227898080000000e-008
4.298660000000000e+002 1.855901770000000e-003 2.393343190000000e-008 9.981416090000000e-001 -1.247150570000000e-007 9.981416090000000e-001 -1.247150570000000e-007 1.855891920000000e-003 2.405628690000000e-008
4.641590000000000e+002 1.855901770000000e-003 2.584274580000000e-008 9.981416090000000e-001 -1.346643290000000e-007 9.981416090000000e-001 -1.346643290000000e-007 1.855891920000000e-003 2.597540170000000e-008
5.011870000000000e+002 1.855901770000000e-003 2.790433470000000e-008 9.981416090000000e-001 -1.454070920000000e-007 9.981416090000000e-001 -1.454070920000000e-007 1.855891920000000e-003 2.804757320000000e-008
5.411700000000000e+002 1.855901770000000e-003 3.013044740000000e-008 9.981416090000000e-001 -1.570071770000000e-007 9.981416090000000e-001 -1.570071770000000e-007 1.855891920000000e-003 3.028511330000000e-008
5.843410000000000e+002 1.855901770000000e-003 3.253405710000000e-008 9.981416090000000e-001 -1.695321810000000e-007 9.981416090000000e-001 -1.695321810000000e-007 1.855891920000000e-003 3.270106060000000e-008
6.309570000000000e+002 1.855901770000000e-003 3.512947180000000e-008 9.981416090000000e-001 -1.830566680000000e-007 9.981416090000000e-001 -1.830566680000000e-007 1.855891920000000e-003 3.530979840000000e-008
6.812920000000000e+002 1.855901770000000e-003 3.793194720000000e-008 9.981416090000000e-001 -1.976601300000000e-007 9.981416090000000e-001 -1.976601300000000e-007 1.855891930000000e-003 3.812665950000000e-008
7.356420000000001e+002 1.855901780000000e-003 4.095796360000000e-008 9.981416090000000e-001 -2.134284450000000e-007 9.981416090000000e-001 -2.134284450000000e-007 1.855891930000000e-003 4.116820900000000e-008
7.943280000000000e+002 1.855901780000000e-003 4.422539280000000e-008 9.981416090000000e-001 -2.304547450000000e-007 9.981416090000000e-001 -2.304547450000000e-007 1.855891930000000e-003 4.445241030000000e-008
8.576960000000000e+002 1.855901780000000e-003 4.775349870000000e-008 9.981416090000000e-001 -2.488394110000000e-007 9.981416090000000e-001 -2.488394110000000e-007 1.855891930000000e-003 4.799862720000000e-008
9.261190000000000e+002 1.855901790000000e-003 5.156304930000000e-008 9.981416090000000e-001 -2.686906600000000e-007 9.981416090000000e-001 -2.686906600000000e-007 1.855891940000000e-003 5.182773250000000e-008
1.000000000000000e+003 1.855901790000000e-003 5.567648100000000e-008 9.981416090000000e-001 -2.901254140000000e-007 9.981416090000000e-001 -2.901254140000000e-007 1.855891940000000e-003 5.596227970000000e-008
1.079780000000000e+003 1.855901790000000e-003 6.011834770000000e-008 9.981416090000000e-001 -3.132716160000000e-007 9.981416090000000e-001 -3.132716160000000e-007 1.855891940000000e-003 6.042694760000001e-008
1.165910000000000e+003 1.855901800000000e-003 6.491375940000000e-008 9.981416090000000e-001 -3.382601130000000e-007 9.981416090000000e-001 -3.382601130000000e-007 1.855891950000000e-003 6.524697439999999e-008
1.258930000000000e+003 1.855901810000000e-003 7.009278039999999e-008 9.981416090000000e-001 -3.652475740000000e-007 9.981416090000000e-001 -3.652475740000000e-007 1.855891960000000e-003 7.045258050000000e-008
1.359360000000000e+003 1.855901810000000e-003 7.568436240000000e-008 9.981416090000000e-001 -3.943848610000000e-007 9.981416090000000e-001 -3.943848610000000e-007 1.855891960000000e-003 7.607286550000000e-008
1.467800000000000e+003 1.855901820000000e-003 8.172191119999999e-008 9.981416090000000e-001 -4.258460520000000e-007 9.981416090000000e-001 -4.258460520000000e-007 1.855891970000000e-003 8.214140650000000e-008
1.584890000000000e+003 1.855901830000000e-003 8.824105890000000e-008 9.981416090000000e-001 -4.598168240000000e-007 9.981416090000000e-001 -4.598168240000000e-007 1.855891980000000e-003 8.869401840000001e-008
1.711330000000000e+003 1.855901840000000e-003 9.528077840000000e-008 9.981416090000000e-001 -4.965002650000000e-007 9.981416090000000e-001 -4.965002650000000e-007 1.855891990000000e-003 9.576987420000000e-008
1.847850000000000e+003 1.855901860000000e-003 1.028817130000000e-007 9.981416090000000e-001 -5.361081660000000e-007 9.981416090000000e-001 -5.361081660000000e-007 1.855892010000000e-003 1.034098260000000e-007
1.995260000000000e+003 1.855901870000000e-003 1.110889580000000e-007 9.981416090000000e-001 -5.788755270000000e-007 9.981416090000000e-001 -5.788755270000000e-007 1.855892020000000e-003 1.116592010000000e-007
2.154430000000000e+003 1.855901890000000e-003 1.199509530000000e-007 9.981416090000000e-001 -6.250547560000001e-007 9.981416090000000e-001 -6.250547560000001e-007 1.855892040000000e-003 1.205666870000000e-007
2.326310000000000e+003 1.855901910000000e-003 1.295205870000000e-007 9.981416090000000e-001 -6.749214690000002e-007 9.981416090000000e-001 -6.749214690000002e-007 1.855892060000000e-003 1.301854440000000e-007
2.511890000000000e+003 1.855901940000000e-003 1.398529780000000e-007 9.981416090000000e-001 -7.287628880000000e-007 9.981416090000000e-001 -7.287628880000000e-007 1.855892090000000e-003 1.405708740000000e-007
2.712270000000000e+003 1.855901970000000e-003 1.510093670000000e-007 9.981416090000000e-001 -7.868981490000000e-007 9.981416090000000e-001 -7.868981490000000e-007 1.855892120000000e-003 1.517845320000000e-007
2.928640000000000e+003 1.855902000000000e-003 1.630560070000000e-007 9.981416090000000e-001 -8.496724980000000e-007 9.981416090000000e-001 -8.496724980000000e-007 1.855892150000000e-003 1.638930100000000e-007
3.162280000000000e+003 1.855902040000000e-003 1.760641580000000e-007 9.981416090000000e-001 -9.174572880000000e-007 9.981416090000000e-001 -9.174572880000000e-007 1.855892190000000e-003 1.769679350000000e-007
3.414550000000000e+003 1.855902090000000e-003 1.901095340000000e-007 9.981416090000000e-001 -9.906470849999999e-007 9.981416090000000e-001 -9.906470849999999e-007 1.855892240000000e-003 1.910854110000000e-007
3.686950000000000e+003 1.855902150000000e-003 2.052756430000000e-007 9.981416090000000e-001 -1.069677070000000e-006 9.981416090000000e-001 -1.069677070000000e-006 1.855892300000000e-003 2.063293730000000e-007
3.981070000000000e+003 1.855902210000000e-003 2.216510020000000e-007 9.981416090000000e-001 -1.155008530000000e-006 9.981416090000000e-001 -1.155008530000000e-006 1.855892360000000e-003 2.227887930000000e-007
4.298660000000000e+003 1.855902290000000e-003 2.393330340000000e-007 9.981416090000000e-001 -1.247149180000000e-006 9.981416090000000e-001 -1.247149180000000e-006 1.855892430000000e-003 2.405615930000000e-007
4.641590000000000e+003 1.855902370000000e-003 2.584258390000000e-007 9.981416090000000e-001 -1.346641530000000e-006 9.981416090000000e-001 -1.346641530000000e-006 1.855892520000000e-003 2.597524100000000e-007
5.011870000000000e+003 1.855902470000000e-003 2.790413090000000e-007 9.981416090000000e-001 -1.454068710000000e-006 9.981416090000000e-001 -1.454068710000000e-006 1.855892620000000e-003 2.804737080000000e-007
5.411700000000000e+003 1.855902590000000e-003 3.013019100000000e-007 9.981416080000000e-001 -1.570068990000000e-006 9.981416080000000e-001 -1.570068990000000e-006 1.855892740000000e-003 3.028485840000000e-007
5.843410000000000e+003 1.855902730000000e-003 3.253373390000000e-007 9.981416080000000e-001 -1.695318310000000e-006 9.981416080000000e-001 -1.695318310000000e-006 1.855892880000000e-003 3.270074000000000e-007
6.309570000000000e+003 1.855902890000000e-003 3.512906510000000e-007 9.981416080000000e-001 -1.830562260000000e-006 9.981416080000000e-001 -1.830562260000000e-006 1.855893030000000e-003 3.530939450000000e-007
6.812920000000000e+003 1.855903080000000e-003 3.793143520000000e-007 9.981416080000000e-001 -1.976595740000000e-006 9.981416080000000e-001 -1.976595740000000e-006 1.855893220000000e-003 3.812615110000000e-007
