![Disclaimer] This software code/ model/ data and all associated documentation, comments
!    or other information (collectively "Software") is provided 
!    "AS IS" without warranty of any kind. MICRON TECHNOLOGY, INC. 
!    ("MTI") EXPRESSLY DISCLAIMS ALL WARRANTIES EXPRESS OR IMPLIED,
!    INCLUDING BUT NOT LIMITED TO, NONINFRINGEMENT OF THIRD PARTY
!    RIGHTS, AND ANY IMPLIED WARRANTIES OF MERCHANTABILITY OR FITNESS
!    FOR ANY PARTICULAR PURPOSE. MTI DOES NOT WARRANT THAT THE
!    SOFTWARE WILL MEET YOUR REQUIREMENTS, OR THAT THE OPERATION OF
!    THE SOFTWARE WILL BE UNINTERRUPTED OR ERROR-FREE. FURTHERMORE,
!    MTI DOES NOT MAKE ANY REPRESENTATIONS REGARDING THE USE OR THE
!    RESULTS OF THE USE OF THE SOFTWARE IN TERMS OF ITS CORRECTNESS,
!    ACCURACY, RELIABILITY, OR OTHERWISE. THE ENTIRE RISK ARISING OUT
!    OF USE OR PERFORMANCE OF THE SOFTWARE REMAINS WITH YOU. IN NO
!    EVENT SHALL MTI, ITS AFFILIATED COMPANIES OR THEIR SUPPLIERS BE
!    LIABLE FOR ANY DIRECT, INDIRECT, CONSEQUENTIAL, INCIDENTAL, OR
!    SPECIAL DAMAGES (INCLUDING, WITHOUT LIMITATION, DAMAGES FOR LOSS
!    OF PROFITS, BUSINESS INTERRUPTION, OR LOSS OF INFORMATION)
!    ARISING OUT OF YOUR USE OF OR INABILITY TO USE THE SOFTWARE,
!    EVEN IF MTI HAS BEEN ADVISED OF THE POSSIBILITY OF SUCH DAMAGES.
!    Because some jurisdictions prohibit the exclusion or limitation
!    of liability for consequential or incidental damages, the above
!    limitation may not apply to you.
!    Copyright 2019 Micron Technology, Inc. All rights reserved.

! Single-ended  S-parameters
!NUMBER OF PORTS = 2
!   PORT#     PORT_NAME  NET_NAME
! PORT1:  DQ0.BGA.VDDQ_VSS DQ0
! PORT2:  DQ0.Z11B_DIE.VDDQ_VSS DQ0

# HZ S  RI R 5.000000e+001
! 
1.000000000000000e+001 1.867351790000000e-003 5.754442890000000e-010 9.981301760000000e-001 -2.980679350000000e-009 9.981301760000000e-001 -2.980679350000000e-009 1.867342390000000e-003 5.781483070000000e-010
1.079780000000000e+001 1.867351790000000e-003 6.213532740000000e-010 9.981301760000000e-001 -3.218478060000000e-009 9.981301760000000e-001 -3.218478060000000e-009 1.867342390000000e-003 6.242728280000000e-010
1.165910000000000e+001 1.867351790000000e-003 6.709162110000000e-010 9.981301760000000e-001 -3.475203700000000e-009 9.981301760000000e-001 -3.475203700000000e-009 1.867342390000000e-003 6.740684400000000e-010
1.258930000000000e+001 1.867351790000000e-003 7.244440460000000e-010 9.981301760000000e-001 -3.752466900000000e-009 9.981301760000000e-001 -3.752466900000000e-009 1.867342390000000e-003 7.278484200000000e-010
1.359360000000000e+001 1.867351790000000e-003 7.822360120000000e-010 9.981301760000000e-001 -4.051816780000000e-009 9.981301760000000e-001 -4.051816780000000e-009 1.867342390000000e-003 7.859115860000000e-010
1.467800000000000e+001 1.867351790000000e-003 8.446373180000000e-010 9.981301760000000e-001 -4.375041480000000e-009 9.981301760000000e-001 -4.375041480000000e-009 1.867342390000000e-003 8.486054360000000e-010
1.584890000000000e+001 1.867351790000000e-003 9.120159770000000e-010 9.981301760000000e-001 -4.724048600000000e-009 9.981301760000000e-001 -4.724048600000000e-009 1.867342390000000e-003 9.163012020000000e-010
1.711330000000000e+001 1.867351790000000e-003 9.847751779999999e-010 9.981301760000000e-001 -5.100925670000000e-009 9.981301760000000e-001 -5.100925670000000e-009 1.867342390000000e-003 9.894020330000001e-010
1.847850000000000e+001 1.867351790000000e-003 1.063334780000000e-009 9.981301760000000e-001 -5.507847930000000e-009 9.981301760000000e-001 -5.507847930000000e-009 1.867342390000000e-003 1.068330780000000e-009
1.995260000000000e+001 1.867351790000000e-003 1.148161160000000e-009 9.981301760000000e-001 -5.947230270000000e-009 9.981301760000000e-001 -5.947230270000000e-009 1.867342390000000e-003 1.153555750000000e-009
2.154430000000000e+001 1.867351790000000e-003 1.239754580000000e-009 9.981301760000000e-001 -6.421664750000000e-009 9.981301760000000e-001 -6.421664750000000e-009 1.867342390000000e-003 1.245579360000000e-009
2.326310000000000e+001 1.867351790000000e-003 1.338661920000000e-009 9.981301760000000e-001 -6.933983950000000e-009 9.981301760000000e-001 -6.933983950000000e-009 1.867342390000000e-003 1.344951790000000e-009
2.511890000000000e+001 1.867351790000000e-003 1.445452760000000e-009 9.981301760000000e-001 -7.487138750000000e-009 9.981301760000000e-001 -7.487138750000000e-009 1.867342390000000e-003 1.452244880000000e-009
2.712270000000000e+001 1.867351790000000e-003 1.560760420000000e-009 9.981301760000000e-001 -8.084406559999999e-009 9.981301760000000e-001 -8.084406559999999e-009 1.867342390000000e-003 1.568093520000000e-009
2.928640000000000e+001 1.867351790000000e-003 1.685269290000000e-009 9.981301760000000e-001 -8.729336370000000e-009 9.981301760000000e-001 -8.729336370000000e-009 1.867342390000000e-003 1.693187620000000e-009
3.162280000000000e+001 1.867351790000000e-003 1.819716200000000e-009 9.981301760000000e-001 -9.425742880000001e-009 9.981301760000000e-001 -9.425742880000001e-009 1.867342390000000e-003 1.828266340000000e-009
3.414550000000000e+001 1.867351790000000e-003 1.964883550000000e-009 9.981301760000000e-001 -1.017767840000000e-008 9.981301760000000e-001 -1.017767840000000e-008 1.867342390000000e-003 1.974115570000000e-009
3.686950000000000e+001 1.867351790000000e-003 2.121634550000000e-009 9.981301760000000e-001 -1.098961500000000e-008 9.981301760000000e-001 -1.098961500000000e-008 1.867342390000000e-003 2.131603200000000e-009
3.981070000000000e+001 1.867351790000000e-003 2.290884080000000e-009 9.981301760000000e-001 -1.186629300000000e-008 9.981301760000000e-001 -1.186629300000000e-008 1.867342390000000e-003 2.301648210000000e-009
4.298660000000000e+001 1.867351790000000e-003 2.473639450000000e-009 9.981301760000000e-001 -1.281292680000000e-008 9.981301760000000e-001 -1.281292680000000e-008 1.867342390000000e-003 2.485262270000000e-009
4.641590000000000e+001 1.867351790000000e-003 2.670976580000000e-009 9.981301760000000e-001 -1.383509140000000e-008 9.981301760000000e-001 -1.383509140000000e-008 1.867342400000000e-003 2.683526790000000e-009
5.011870000000000e+001 1.867351790000000e-003 2.884052070000000e-009 9.981301760000000e-001 -1.493877710000000e-008 9.981301760000000e-001 -1.493877710000000e-008 1.867342400000000e-003 2.897603660000000e-009
5.411700000000000e+001 1.867351790000000e-003 3.114132090000000e-009 9.981301760000000e-001 -1.613054200000000e-008 9.981301760000000e-001 -1.613054200000000e-008 1.867342400000000e-003 3.128764110000000e-009
5.843410000000000e+001 1.867351790000000e-003 3.362557230000000e-009 9.981301760000000e-001 -1.741733110000000e-008 9.981301760000000e-001 -1.741733110000000e-008 1.867342400000000e-003 3.378356570000000e-009
6.309570000000000e+001 1.867351790000000e-003 3.630806270000000e-009 9.981301760000000e-001 -1.880680480000000e-008 9.981301760000000e-001 -1.880680480000000e-008 1.867342400000000e-003 3.647866290000000e-009
6.812920000000000e+001 1.867351790000000e-003 3.920456100000000e-009 9.981301760000000e-001 -2.030712980000000e-008 9.981301760000000e-001 -2.030712980000000e-008 1.867342400000000e-003 3.938876810000000e-009
7.356420000000000e+001 1.867351790000000e-003 4.233210130000000e-009 9.981301760000000e-001 -2.192712850000000e-008 9.981301760000000e-001 -2.192712850000000e-008 1.867342400000000e-003 4.253100260000000e-009
7.943280000000000e+001 1.867351790000000e-003 4.570915380000000e-009 9.981301760000000e-001 -2.367637020000000e-008 9.981301760000000e-001 -2.367637020000000e-008 1.867342400000000e-003 4.592392270000000e-009
8.576960000000000e+001 1.867351790000000e-003 4.935563070000000e-009 9.981301760000000e-001 -2.556516710000000e-008 9.981301760000000e-001 -2.556516710000000e-008 1.867342400000000e-003 4.958753410000000e-009
9.261190000000001e+001 1.867351790000000e-003 5.329299490000000e-009 9.981301760000000e-001 -2.760463770000000e-008 9.981301760000000e-001 -2.760463770000000e-008 1.867342400000000e-003 5.354339360000000e-009
1.000000000000000e+002 1.867351790000000e-003 5.754443410000000e-009 9.981301760000000e-001 -2.980679280000000e-008 9.981301760000000e-001 -2.980679280000000e-008 1.867342400000000e-003 5.781481130000000e-009
1.079780000000000e+002 1.867351790000000e-003 6.213532830000000e-009 9.981301760000000e-001 -3.218477920000000e-008 9.981301760000000e-001 -3.218477920000000e-008 1.867342400000000e-003 6.242728170000000e-009
1.165910000000000e+002 1.867351790000000e-003 6.709163060000000e-009 9.981301760000000e-001 -3.475203810000000e-008 9.981301760000000e-001 -3.475203810000000e-008 1.867342400000000e-003 6.740686730000000e-009
1.258930000000000e+002 1.867351790000000e-003 7.244441270000000e-009 9.981301760000000e-001 -3.752466570000000e-008 9.981301760000000e-001 -3.752466570000000e-008 1.867342400000000e-003 7.278480430000000e-009
1.359360000000000e+002 1.867351790000000e-003 7.822359999999999e-009 9.981301760000000e-001 -4.051816240000000e-008 9.981301760000000e-001 -4.051816240000000e-008 1.867342400000000e-003 7.859114300000000e-009
1.467800000000000e+002 1.867351790000000e-003 8.446371780000000e-009 9.981301760000000e-001 -4.375041070000000e-008 9.981301760000000e-001 -4.375041070000000e-008 1.867342400000000e-003 8.486058380000000e-009
1.584890000000000e+002 1.867351790000000e-003 9.120159540000001e-009 9.981301760000000e-001 -4.724048850000000e-008 9.981301760000000e-001 -4.724048850000000e-008 1.867342400000000e-003 9.163012070000000e-009
1.711330000000000e+002 1.867351790000000e-003 9.847751239999999e-009 9.981301760000000e-001 -5.100925900000000e-008 9.981301760000000e-001 -5.100925900000000e-008 1.867342400000000e-003 9.894022319999999e-009
1.847850000000000e+002 1.867351790000000e-003 1.063334800000000e-008 9.981301760000000e-001 -5.507848270000000e-008 9.981301760000000e-001 -5.507848270000000e-008 1.867342400000000e-003 1.068331040000000e-008
1.995260000000000e+002 1.867351790000000e-003 1.148161060000000e-008 9.981301760000000e-001 -5.947230190000000e-008 9.981301760000000e-001 -5.947230190000000e-008 1.867342400000000e-003 1.153555820000000e-008
2.154430000000000e+002 1.867351790000000e-003 1.239754520000000e-008 9.981301760000000e-001 -6.421664890000000e-008 9.981301760000000e-001 -6.421664890000000e-008 1.867342400000000e-003 1.245579620000000e-008
2.326310000000000e+002 1.867351790000000e-003 1.338661910000000e-008 9.981301760000000e-001 -6.933984050000000e-008 9.981301760000000e-001 -6.933984050000000e-008 1.867342400000000e-003 1.344951730000000e-008
2.511890000000000e+002 1.867351790000000e-003 1.445452820000000e-008 9.981301760000000e-001 -7.487138530000000e-008 9.981301760000000e-001 -7.487138530000000e-008 1.867342400000000e-003 1.452244510000000e-008
2.712270000000000e+002 1.867351790000000e-003 1.560760370000000e-008 9.981301760000000e-001 -8.084407000000000e-008 9.981301760000000e-001 -8.084407000000000e-008 1.867342400000000e-003 1.568093830000000e-008
2.928640000000000e+002 1.867351800000000e-003 1.685269240000000e-008 9.981301760000000e-001 -8.729336610000000e-008 9.981301760000000e-001 -8.729336610000000e-008 1.867342400000000e-003 1.693187700000000e-008
3.162280000000000e+002 1.867351800000000e-003 1.819716040000000e-008 9.981301760000000e-001 -9.425742500000000e-008 9.981301760000000e-001 -9.425742500000000e-008 1.867342400000000e-003 1.828266250000000e-008
3.414550000000000e+002 1.867351800000000e-003 1.964883370000000e-008 9.981301760000000e-001 -1.017767850000000e-007 9.981301760000000e-001 -1.017767850000000e-007 1.867342400000000e-003 1.974115680000000e-008
3.686950000000000e+002 1.867351800000000e-003 2.121634390000000e-008 9.981301760000000e-001 -1.098961550000000e-007 9.981301760000000e-001 -1.098961550000000e-007 1.867342400000000e-003 2.131603180000000e-008
3.981070000000000e+002 1.867351800000000e-003 2.290884060000000e-008 9.981301760000000e-001 -1.186629290000000e-007 9.981301760000000e-001 -1.186629290000000e-007 1.867342400000000e-003 2.301648070000000e-008
4.298660000000000e+002 1.867351800000000e-003 2.473639400000000e-008 9.981301760000000e-001 -1.281292670000000e-007 9.981301760000000e-001 -1.281292670000000e-007 1.867342400000000e-003 2.485262140000000e-008
4.641590000000000e+002 1.867351800000000e-003 2.670976500000000e-008 9.981301760000000e-001 -1.383509110000000e-007 9.981301760000000e-001 -1.383509110000000e-007 1.867342400000000e-003 2.683526430000000e-008
5.011870000000000e+002 1.867351800000000e-003 2.884051970000000e-008 9.981301760000000e-001 -1.493877690000000e-007 9.981301760000000e-001 -1.493877690000000e-007 1.867342400000000e-003 2.897603070000000e-008
5.411700000000000e+002 1.867351800000000e-003 3.114131810000000e-008 9.981301760000000e-001 -1.613054190000000e-007 9.981301760000000e-001 -1.613054190000000e-007 1.867342400000000e-003 3.128764000000000e-008
5.843410000000000e+002 1.867351800000000e-003 3.362556830000000e-008 9.981301760000000e-001 -1.741733090000000e-007 9.981301760000000e-001 -1.741733090000000e-007 1.867342410000000e-003 3.378356240000000e-008
6.309570000000000e+002 1.867351800000000e-003 3.630805870000000e-008 9.981301760000000e-001 -1.880680430000000e-007 9.981301760000000e-001 -1.880680430000000e-007 1.867342410000000e-003 3.647865690000000e-008
6.812920000000000e+002 1.867351810000000e-003 3.920455670000000e-008 9.981301760000000e-001 -2.030712910000000e-007 9.981301760000000e-001 -2.030712910000000e-007 1.867342410000000e-003 3.938876450000000e-008
7.356420000000001e+002 1.867351810000000e-003 4.233209520000000e-008 9.981301760000000e-001 -2.192712810000000e-007 9.981301760000000e-001 -2.192712810000000e-007 1.867342410000000e-003 4.253099800000000e-008
7.943280000000000e+002 1.867351810000000e-003 4.570914600000000e-008 9.981301760000000e-001 -2.367636940000000e-007 9.981301760000000e-001 -2.367636940000000e-007 1.867342410000000e-003 4.592391610000000e-008
8.576960000000000e+002 1.867351810000000e-003 4.935561930000000e-008 9.981301760000000e-001 -2.556516600000000e-007 9.981301760000000e-001 -2.556516600000000e-007 1.867342420000000e-003 4.958752340000000e-008
9.261190000000000e+002 1.867351820000000e-003 5.329297930000000e-008 9.981301760000000e-001 -2.760463590000000e-007 9.981301760000000e-001 -2.760463590000000e-007 1.867342420000000e-003 5.354338310000000e-008
1.000000000000000e+003 1.867351820000000e-003 5.754441590000000e-008 9.981301760000000e-001 -2.980679120000000e-007 9.981301760000000e-001 -2.980679120000000e-007 1.867342420000000e-003 5.781479610000000e-008
1.079780000000000e+003 1.867351830000000e-003 6.213530630000000e-008 9.981301760000000e-001 -3.218477670000000e-007 9.981301760000000e-001 -3.218477670000000e-007 1.867342430000000e-003 6.242725750000000e-008
1.165910000000000e+003 1.867351830000000e-003 6.709160269999999e-008 9.981301760000000e-001 -3.475203510000000e-007 9.981301760000000e-001 -3.475203510000000e-007 1.867342440000000e-003 6.740684150000000e-008
1.258930000000000e+003 1.867351840000000e-003 7.244437890000000e-008 9.981301760000000e-001 -3.752466230000000e-007 9.981301760000000e-001 -3.752466230000000e-007 1.867342440000000e-003 7.278476800000001e-008
1.359360000000000e+003 1.867351850000000e-003 7.822355720000000e-008 9.981301760000000e-001 -4.051815750000000e-007 9.981301760000000e-001 -4.051815750000000e-007 1.867342450000000e-003 7.859110100000000e-008
1.467800000000000e+003 1.867351860000000e-003 8.446366410000000e-008 9.981301760000000e-001 -4.375040490000000e-007 9.981301760000000e-001 -4.375040490000000e-007 1.867342460000000e-003 8.486052850000001e-008
1.584890000000000e+003 1.867351870000000e-003 9.120152760000000e-008 9.981301760000000e-001 -4.724048080000000e-007 9.981301760000000e-001 -4.724048080000000e-007 1.867342470000000e-003 9.163005050000001e-008
1.711330000000000e+003 1.867351880000000e-003 9.847742800000001e-008 9.981301760000000e-001 -5.100924980000000e-007 9.981301760000000e-001 -5.100924980000000e-007 1.867342480000000e-003 9.894013730000000e-008
1.847850000000000e+003 1.867351900000000e-003 1.063333710000000e-007 9.981301760000000e-001 -5.507847070000000e-007 9.981301760000000e-001 -5.507847070000000e-007 1.867342500000000e-003 1.068329940000000e-007
1.995260000000000e+003 1.867351910000000e-003 1.148159680000000e-007 9.981301760000000e-001 -5.947228700000000e-007 9.981301760000000e-001 -5.947228700000000e-007 1.867342510000000e-003 1.153554470000000e-007
2.154430000000000e+003 1.867351930000000e-003 1.239752790000000e-007 9.981301760000000e-001 -6.421663040000000e-007 9.981301760000000e-001 -6.421663040000000e-007 1.867342530000000e-003 1.245577950000000e-007
2.326310000000000e+003 1.867351960000000e-003 1.338659720000000e-007 9.981301760000000e-001 -6.933981710000000e-007 9.981301760000000e-001 -6.933981710000000e-007 1.867342560000000e-003 1.344949600000000e-007
2.511890000000000e+003 1.867351980000000e-003 1.445450110000000e-007 9.981301760000000e-001 -7.487135570000000e-007 9.981301760000000e-001 -7.487135570000000e-007 1.867342580000000e-003 1.452241770000000e-007
2.712270000000000e+003 1.867352020000000e-003 1.560756930000000e-007 9.981301760000000e-001 -8.084403310000000e-007 9.981301760000000e-001 -8.084403310000000e-007 1.867342620000000e-003 1.568090390000000e-007
2.928640000000000e+003 1.867352050000000e-003 1.685264920000000e-007 9.981301760000000e-001 -8.729331930000000e-007 9.981301760000000e-001 -8.729331930000000e-007 1.867342650000000e-003 1.693183410000000e-007
3.162280000000000e+003 1.867352090000000e-003 1.819710600000000e-007 9.981301760000000e-001 -9.425736610000001e-007 9.981301760000000e-001 -9.425736610000001e-007 1.867342690000000e-003 1.828260810000000e-007
3.414550000000000e+003 1.867352150000000e-003 1.964876520000000e-007 9.981301760000000e-001 -1.017767100000000e-006 9.981301760000000e-001 -1.017767100000000e-006 1.867342740000000e-003 1.974108820000000e-007
3.686950000000000e+003 1.867352200000000e-003 2.121625760000000e-007 9.981301760000000e-001 -1.098960610000000e-006 9.981301760000000e-001 -1.098960610000000e-006 1.867342800000000e-003 2.131594590000000e-007
3.981070000000000e+003 1.867352270000000e-003 2.290873180000000e-007 9.981301750000000e-001 -1.186628110000000e-006 9.981301750000000e-001 -1.186628110000000e-006 1.867342870000000e-003 2.301637280000000e-007
4.298660000000000e+003 1.867352350000000e-003 2.473625700000000e-007 9.981301750000000e-001 -1.281291200000000e-006 9.981301750000000e-001 -1.281291200000000e-006 1.867342950000000e-003 2.485248520000000e-007
4.641590000000000e+003 1.867352440000000e-003 2.670959240000000e-007 9.981301750000000e-001 -1.383507250000000e-006 9.981301750000000e-001 -1.383507250000000e-006 1.867343040000000e-003 2.683509300000000e-007
5.011870000000000e+003 1.867352550000000e-003 2.884030260000000e-007 9.981301750000000e-001 -1.493875350000000e-006 9.981301750000000e-001 -1.493875350000000e-006 1.867343150000000e-003 2.897581510000000e-007
5.411700000000000e+003 1.867352680000000e-003 3.114104490000000e-007 9.981301750000000e-001 -1.613051240000000e-006 9.981301750000000e-001 -1.613051240000000e-006 1.867343270000000e-003 3.128736850000000e-007
5.843410000000000e+003 1.867352820000000e-003 3.362522410000000e-007 9.981301750000000e-001 -1.741729380000000e-006 9.981301750000000e-001 -1.741729380000000e-006 1.867343420000000e-003 3.378322080000000e-007
6.309570000000000e+003 1.867353000000000e-003 3.630762550000000e-007 9.981301750000000e-001 -1.880675750000000e-006 9.981301750000000e-001 -1.880675750000000e-006 1.867343590000000e-003 3.647822680000000e-007
6.812920000000000e+003 1.867353200000000e-003 3.920401120000000e-007 9.981301740000000e-001 -2.030707020000000e-006 9.981301740000000e-001 -2.030707020000000e-006 1.867343790000000e-003 3.938822300000000e-007
